Alternative Transients Program (ATP),  GNU Linux or DOS.  All rights reserved by Can/Am user group of Portland, Oregon, USA.
 Date (dd-mth-yy) and time of day (hh.mm.ss) = 09-Feb-25  10:27:26   Name of disk plot file is  caso0_convenc_semcontrole.pl4
Consult the 860-page ATP Rule Book of the Can/Am EMTP User Group in Portland,  Oregon, USA.  Source code date is 19 December 2003.
Total size of LABCOM tables = 9872109 INTEGER words.  31 VARDIM  List Sizes follow:  6002  10K  192K  900  420K  1200  15K
  120K  2250  3800  720  1200  72800  510  90K  800  90  254  120K  100K  3K  15K  192K  120  30K  160K  600  210K  1K  19  200
--------------------------------------------------+--------------------------------------------------------------------------------
Descriptive interpretation of input data cards.   |  Input data card images are shown below, all 80 columns, character by character
                                                  0         1         2         3         4         5         6         7         8
                                                  012345678901234567890123456789012345678901234567890123456789012345678901234567890
--------------------------------------------------+--------------------------------------------------------------------------------
Comment card.   NUMDCD = 1.                       |C data:CASO0_CONVENC_SEMCONTROLE.ATP
Marker card preceding new EMTP data case.         |BEGIN NEW DATA CASE
Comment card.   NUMDCD = 3.                       |C --------------------------------------------------------
Comment card.   NUMDCD = 4.                       |C Generated by ATPDRAW  fevereiro, domingo 9, 2025
Comment card.   NUMDCD = 5.                       |C A Bonneville Power Administration program
Comment card.   NUMDCD = 6.                       |C by H. K. Høidalen at SEfAS/NTNU - NORWAY 1994-2009
Comment card.   NUMDCD = 7.                       |C --------------------------------------------------------
Comment card.   NUMDCD = 8.                       |C $DUMMY, XYZ000
Comment card.   NUMDCD = 9.                       |C  dT  >< Tmax >< Xopt >< Copt ><Epsiln>
Misc. data.     1.000E-06   2.000E-01   0.000E+00 |   1.E-6      .2
Misc. data.    500    1  0  0  1  0  0  1300  0   |     500       1       0       0       1       0       0       1     300
Statistics data.      1    1    0    0    1    0  |       1       1       0       0       1      -1                               0
Comment card.   NUMDCD = 13.                      |C        1         2         3         4         5         6         7         8
Comment card.   NUMDCD = 14.                      |C 345678901234567890123456789012345678901234567890123456789012345678901234567890
Comment card.   NUMDCD = 15.                      |C < n1 >< n2 ><ref1><ref2>< R  >< L  >< C  >
Comment card.   NUMDCD = 16.                      |C < n1 >< n2 ><ref1><ref2>< R  >< A  >< B  ><Leng><><>0
Series R-L-C.   5.000E+00  7.500E-02  0.000E+00   |  X0001AX0003A                5.   75.                                         0
Series R-L-C.   5.000E+00  7.500E-02  0.000E+00   |  X0001BX0003B                5.   75.                                         0
Series R-L-C.   5.000E+00  7.500E-02  0.000E+00   |  X0001CX0003C                5.   75.                                         0
Series R-L-C.   2.000E+02  0.000E+00  0.000E+00   |  X0003AX0001A              200.                                               0
Series R-L-C.   2.000E+02  0.000E+00  0.000E+00   |  X0003BX0001B              200.                                               0
Series R-L-C.   2.000E+02  0.000E+00  0.000E+00   |  X0003CX0001C              200.                                               0
Comment card.   NUMDCD = 23.                      |C 8 decadas = 10MHz - catalogo ALUBAR
Comment card.   NUMDCD = 24.                      |C $INCLUDE, C:\ATP\work\CONV.lib, X0002A, X0002B, X0002C, STDA##, STDB## $$
Comment card.   NUMDCD = 25.                      |C   , STDC##
J. Marti line, mode  1   parameters begin.        |-1X0002ASTDA                  2.  0.00              -2
J. Marti line, mode  2   parameters begin.        |-2X0002BSTDB                  2.  0.00              -2
J. Marti line, mode  3   parameters begin.        |-3X0002CSTDC                  2.  0.00              -2
Blank card ending branches.  IBR, NTOT = 9  13    |BLANK BRANCH
Comment card.   NUMDCD = 116.                     |C < n 1>< n 2>< Tclose ><Top/Tde ><   Ie   ><Vf/CLOP ><  type  >
Comment card.   NUMDCD = 117.                     |C ref.: 004 - Mestas - pg 2606
Comment card.   NUMDCD = 118.                     |C ref.: 004 - Mestas - pg 2606
Switch.   1.30E-02  1.00E-03  0.00E+00  0.00E+00  |  X0001BX0002B      .013      .001                    STATISTICS               0
Comment card.   NUMDCD = 120.                     |C ref.: 004 - Mestas - pg 2606
Comment card.   NUMDCD = 121.                     |C ref.: 004 - Mestas - pg 2606
Switch.   1.30E-02  1.00E-03  0.00E+00  0.00E+00  |  X0001AX0002A      .013      .001                    STATISTICS               0
Comment card.   NUMDCD = 123.                     |C ref.: 004 - Mestas - pg 2606
Comment card.   NUMDCD = 124.                     |C ref.: 004 - Mestas - pg 2606
Switch.   1.30E-02  1.00E-03  0.00E+00  0.00E+00  |  X0001CX0002C      .013      .001                    STATISTICS               0
Blank card ending switches.   KSWTCH = 3.         |BLANK SWITCH
Comment card.   NUMDCD = 127.                     |C < n 1><>< Ampl.  >< Freq.  ><Phase/T0><   A1   ><   T1   >< TSTART >< TSTOP  >
Source.   4.29E+05  6.00E+01  0.00E+00 -1.00E+00  |14X0003A  428660.705       60.                                     -1.      100.
Source.   4.29E+05  6.00E+01 -1.20E+02 -1.00E+00  |14X0003B  428660.705       60.     -120.                           -1.      100.
Source.   4.29E+05  6.00E+01 -2.40E+02 -1.00E+00  |14X0003C  428660.705       60.     -240.                           -1.      100.
Blank card ends electric sources.  KCONST = 3     |BLANK SOURCE
Pi-equivalent branches of distributed circuits are added to the table of List Size 3 between indices  7   and  12.
     Total network loss  P-loss  by summing injections =   7.705704393814E-23
Card of names for time-step loop output.          |  STDA  STDB  STDC
Card of names for time-step loop output.          |-5STDB  STDC  STDA  STDB  STDC  STDA
Blank card ending requests for output variables.  |BLANK OUTPUT
 
Column headings for the  6   EMTP output variables follow.  These are divided among the 5 possible classes as follows ....
  First  6     output variables are electric-network voltage differences (upper voltage minus lower voltage);
   Step      Time      STDA       STDB       STDC       STDB       STDA       STDC
                                                        STDC       STDB       STDA
      0       0.0         0.0        0.0        0.0        0.0        0.0        0.0
    500     .5E-3         0.0        0.0        0.0        0.0        0.0        0.0
   1000     .1E-2         0.0        0.0        0.0        0.0        0.0        0.0
   1500     .0015         0.0        0.0        0.0        0.0        0.0        0.0
   2000      .002         0.0        0.0        0.0        0.0        0.0        0.0
   2500     .0025         0.0        0.0        0.0        0.0        0.0        0.0
   3000      .003         0.0        0.0        0.0        0.0        0.0        0.0
   3500     .0035         0.0        0.0        0.0        0.0        0.0        0.0
   4000      .004         0.0        0.0        0.0        0.0        0.0        0.0
   4500     .0045         0.0        0.0        0.0        0.0        0.0        0.0
   5000      .005         0.0        0.0        0.0        0.0        0.0        0.0
   5500     .0055         0.0        0.0        0.0        0.0        0.0        0.0
   6000      .006         0.0        0.0        0.0        0.0        0.0        0.0
   6500     .0065         0.0        0.0        0.0        0.0        0.0        0.0
   7000      .007         0.0        0.0        0.0        0.0        0.0        0.0
   7500     .0075         0.0        0.0        0.0        0.0        0.0        0.0
   8000      .008         0.0        0.0        0.0        0.0        0.0        0.0
   8500     .0085         0.0        0.0        0.0        0.0        0.0        0.0
   9000      .009         0.0        0.0        0.0        0.0        0.0        0.0
   9500     .0095         0.0        0.0        0.0        0.0        0.0        0.0
  10000       .01         0.0        0.0        0.0        0.0        0.0        0.0
  10500     .0105         0.0        0.0        0.0        0.0        0.0        0.0
  11000      .011         0.0        0.0        0.0        0.0        0.0        0.0
  11500     .0115         0.0        0.0        0.0        0.0        0.0        0.0
  12000      .012         0.0        0.0        0.0        0.0        0.0        0.0
  12500     .0125         0.0        0.0        0.0        0.0        0.0        0.0
  13000      .013         0.0        0.0        0.0        0.0        0.0        0.0
 ***                                                             Close switch  "X0001B"  to  "X0002B"  after  1.30010000E-02  sec.
 ***                                                             Close switch  "X0001A"  to  "X0002A"  after  1.30010000E-02  sec.
 ***                                                             Close switch  "X0001C"  to  "X0002C"  after  1.30010000E-02  sec.
  13500     .0135   122948.66 -488887.46 365938.803 -854826.27 611836.123 242990.143
  14000      .014   261537.37 -668513.91 406976.543 -.107549E7 930051.283 145439.173
  14500     .0145  325363.223 -502561.79 177198.562 -679760.35 827925.009 -148164.66
  15000      .015  353757.284 -348036.52 -5720.7604 -342315.76 701793.807 -359478.04
  15500     .0155  386672.527  -315613.8 -71058.731 -244555.07 702286.323 -457731.26
  16000      .016  421797.045 -313472.72 -108324.32  -205148.4 735269.766 -530121.37
  16500     .0165  441194.647 -264507.61 -176687.03 -87820.582 705702.262 -617881.68
  17000      .017  438705.524  -178001.5 -260704.02 82702.5227 616707.024 -699409.55
  17500     .0175   418760.68 -88668.958 -330091.72 241422.764 507429.638  -748852.4
  18000      .018  385655.725 -8002.5047 -377653.22 369650.716  393658.23 -763308.95
  18500     .0185  340198.271  70091.395 -410289.67 480381.061 270106.876 -750487.94
  19000      .019  282521.664 149130.988 -431652.65 580783.639 133390.676 -714174.32
  19500     .0195  214285.539 225169.395 -439454.93 664624.329 -10883.856 -653740.47
  20000       .02  138326.875 292747.361 -431074.24 723821.596 -154420.49 -569401.11
  20500     .0205  57628.6517 348926.661 -406555.31 755481.973 -291298.01 -464183.96
  21000      .021  -25005.029 392564.286 -367559.26 760123.543 -417569.32 -342554.23
  21500     .0215  -106775.86 422617.575 -315841.72 738459.294 -529393.43 -209065.86
  22000      .022  -184812.01 437881.039 -253069.02 690950.063 -622693.05 -68257.011
  22500     .0225  -256309.36  437575.24 -181265.88  618841.12  -693884.6 75043.4786
  23000      .023   -318711.7 421679.749 -102968.05 524647.801 -740391.45 215743.646
  23500     .0235  -369815.06 390836.341 -21021.276 411857.617 -760651.41 348793.788
  24000      .024  -407820.23 346177.143 61643.0869 284534.056 -753997.37 469463.317
  24500     .0245  -431382.26 289268.597 142113.666 147154.931 -720650.86 573495.928
  25000      .025  -439662.79 222106.369 217556.418 4549.95198 -661769.16 657219.205
  25500     .0255  -432366.63 147068.414 285298.217  -138229.8 -579435.04 717664.848
  26000      .026    -409753. 66820.1722 342932.831 -276112.66 -476573.18 752685.834
  26500     .0265  -372623.95 -15792.498  388416.45 -404208.95 -356831.45 761040.401
  27000      .027  -322294.85 -97844.637 420139.486 -517984.12 -224450.21 742434.335
  27500     .0275   -260548.3 -176431.22 436979.513 -613410.73 -84117.078 697527.809
  28000      .028  -189571.55 -248768.26 438339.815 -687108.08 59196.7092 627911.368
  28500     .0285  -111879.09 -312292.55 424171.633 -736464.18 200413.461  536050.72
  29000      .029  -30223.269 -364753.47 394976.739 -759730.21   334530.2 425200.009
  29500     .0295  52503.1991 -404292.74 351789.541 -756082.28 456795.939 299286.342
  30000       .03  133369.723  -429509.8 296140.077 -725649.88 562879.523 162770.355
  30500     .0305  209511.575 -439511.31 229999.739 -669511.05 649022.888  20488.164
  31000      .031  278231.384 -433942.91  155711.53 -589654.44 712174.297 -122519.85
  31500     .0315  337094.709 -413001.85 75907.1384 -488908.99 750096.556 -261187.57
  32000      .032  384016.288 -377429.98  -6586.309 -370843.67 761446.268  -390602.6
  32500     .0325  417333.904 -328487.47 -88846.432 -239641.04 745821.376 -506180.34
  33000      .033  435867.263 -267908.14 -167959.13  -99949.01 703775.399 -603826.39
  33500     .0335   438959.81 -197838.02 -241121.79 43283.7694 636797.831  -680081.6
  34000      .034  426501.991 -120759.39  -305742.6 184983.207 547261.383 -732244.59
  34500     .0345  398935.129 -39402.802 -359532.33 320129.525 438337.931 -758467.46
  35000      .035  357235.795 43349.6516 -400585.45 443935.098 313886.143 -757821.24
  35500     .0355  302881.207 124566.422 -427447.63  552014.05 178314.785 -730328.84
  36000      .036  237796.904 201370.364 -439167.27 640537.633   36426.54 -676964.17
  36500     .0365   164288.53 271040.661 -435329.19 706369.852 -106752.13 -599617.72
  37000      .037  84960.1555 331109.207 -416069.36  747178.57 -246149.05 -501029.52
  37500     .0375  2622.02732 379448.044 -382070.07 761518.116 -376826.02  -384692.1
  38000      .038  -79808.985 414344.745 -334535.76 748880.505 -494153.73 -254726.77
  38500     .0385  -159412.72 434563.077 -275150.35 709713.431  -593975.8 -115737.63
  39000      .039  -233369.18 439386.794 -206017.61 645404.406 -672755.98 27351.5709
  39500     .0395  -299058.42 428645.015 -129586.59 558231.609 -727703.44 169471.827
  40000       .04  -354153.36 402718.272 -48564.909 451283.181 -756871.64 305588.455
  40500     .0405  -396702.25 362525.034 34177.2114 328347.822 -759227.28 430879.457
  41000      .041  -425197.75 309489.165 115708.585 193780.579 -734686.91 540906.335
  41500     .0415  -438630.41 245489.487 193140.923  52348.564  -684119.9 631771.334
  42000      .042  -436524.37 172793.222 263731.147 -90937.924 -609317.59 700255.515
  42500     .0425  -418954.23 93975.6706 324978.561 -231002.89  -512929.9 743932.793
  43000      .043  -386542.43 11828.9836 374713.447 -362884.46 -398371.41 761255.877
  43500     .0435  -340437.17 -70736.751 411173.921 -481910.67 -269700.42  751611.09
  44000      .044  -282271.75  -150796.6 433068.352 -583864.95 -131475.15 715340.102
  44500     .0445  -214106.71 -225514.41  439621.12 -665135.53 11407.6967 653727.832
  45000      .045  -138356.83 -292243.25  430600.09 -722843.34  153886.42 568956.925
  45500     .0455  -57705.597 -348619.24 406324.835 -754944.07 290913.642 464030.432
  46000      .046  24989.8927 -392645.21  367655.32 -760300.53 417635.105 342665.427
  46500     .0465  106800.104 -422761.53  315961.43 -738722.96 529561.639 209161.326
  47000      .047   184826.87 -437901.32 253074.449 -690975.77 622728.189 68247.5785
  47500     .0475  256306.054 -437528.23 181222.177 -618750.41 693834.285 -75083.876
  48000      .048  318705.469 -421655.49 102950.019 -524605.51 740360.957 -215755.45
  48500     .0485  369814.585 -390845.39  21030.804 -411876.19 760659.975 -348783.78
  % % % % % %   Suspended simulation;  plot data space exhausted;  SPY SPACE is required.   LIMBUF =  340000.
  % % % % % %   Suspended simulation;  plot data space exhausted;  SPY SPACE is required.   LIMBUF =  340000.
  +++  Time-sharing disabled.   Send  user-keyed interrupt to silence alarm.
   Current values.  INDBUF  INDBEG  LIMBUF  MFLUSH  NUMDCD  KCARD1  KCARD2
                    339998      50  340000    1000     134       1     138
Plot timespan now in memory (in sec) = 0.00000000E+00   4.85640000E-02
   ++++  Begin plot-data copy from memory to disk.   MFLUSH, INDBUF, N4, Tbeg,  Tend = 1001  339998       1  -1.00000E+00
1.00000E+19
SPY:  49000      .049  407822.838  -346189.4 -61633.439 -284555.96 754012.236 -469456.28
  49500     .0495  431383.764 -289269.48 -142114.29 -147155.19  720653.24 -573498.05
  50000       .05  439662.706 -222102.04 -217560.67 -4541.3717 661764.746 -657223.37
  50500     .0505   432366.38 -147066.53 -285299.85 138233.326 579432.907 -717666.23
  51000      .051  409753.261  -66821.11 -342932.15 276111.041 476574.371 -752685.41
  51500     .0515  372624.429 15791.4774 -388415.91 404207.384 356832.952 -761040.34
  52000      .052  322295.193 97844.6434 -420139.84  517984.48  224450.55 -742435.03
  52500     .0525   260548.49 176431.614  -436980.1 613411.718 84116.8767 -697528.59
  53000      .053  189571.729 248768.406 -438340.13  687108.54 -59196.677 -627911.86
  53500     .0535  111879.296 312292.452 -424171.75   736464.2 -200413.16 -536051.04
  54000      .054  30223.4849 364753.382 -394976.87  759730.25  -334529.9 -425200.35
  54500     .0545  -52503.007 404292.742 -351789.73 756082.477 -456795.75 -299286.73
  55000      .055  -133369.55 429509.829 -296140.28 725650.105 -562879.38 -162770.72
  55500     .0555  -209511.41 439511.315  -229999.9 669511.218 -649022.73  -20488.49
  56000      .056  -278231.23 433942.894 -155711.67 589654.562 -712174.12 122519.558
  56500     .0565  -337094.56 413001.829 -75907.271   488909.1 -750096.39 261187.286
  57000      .057  -384016.14 377429.967 6586.17759  370843.79 -761446.11 390602.322
  57500     .0575  -417333.77  328487.46 88846.3068 239641.154 -745821.23 506180.074
  58000      .058  -435867.13 267908.121  167959.01 99949.1108 -703775.25 603826.142
  58500     .0585  -438959.68 197838.003 241121.681 -43283.679 -636797.69 680081.365
  59000      .059  -426501.87 120759.374 305742.495 -184983.12 -547261.24 732244.364
  59500     .0595  -398935.01 39402.7832 359532.228 -320129.45 -438337.79  758467.24
  60000       .06  -357235.68 -43349.671 400585.352 -443935.02 -313886.01 757821.032
  60500     .0605   -302881.1 -124566.44 427447.538 -552013.98 -178314.65 730328.634
  61000      .061   -237796.8 -201370.39 439167.182 -640537.57 -36426.411 676963.978
  61500     .0615  -164288.42 -271040.68 435329.108 -706369.79 106752.258 599617.533
  62000      .062  -84960.053 -331109.23 416069.282 -747178.51 246149.177 501029.335
  62500     .0625  -2621.9265 -379448.07 382069.994 -761518.06 376826.141  384691.92
  63000      .063  79809.0842 -414344.77 334535.685 -748880.45 494153.853   254726.6
  63500     .0635   159412.82  -434563.1 275150.281 -709713.38  593975.92 115737.461
  64000      .064  233369.278 -439386.82  206017.54 -645404.36 672756.097 -27351.738
  64500     .0645  299058.515 -428645.04 129586.525 -558231.56 727703.555 -169471.99
  65000      .065  354153.457  -402718.3 48564.8405 -451283.14 756871.754 -305588.62
  65500     .0655  396702.337 -362525.06 -34177.278 -328347.78 759227.397 -430879.62
  66000      .066  425197.841 -309489.19 -115708.65 -193780.54 734687.032 -540906.49
  66500     .0665  438630.501 -245489.51 -193140.99 -52348.526 684120.015 -631771.49
  67000      .067  436524.459 -172793.25 -263731.21 90937.9614 609317.707 -700255.67
  67500     .0675  418954.321 -93975.697 -324978.62 231002.926 512930.018 -743932.94
  68000      .068  386542.519 -11829.011 -374713.51 362884.498  398371.53 -761256.03
  68500     .0685  340437.257 70736.7242 -411173.98 481910.706 269700.533 -751611.24
  69000      .069  282271.838 150796.575 -433068.41 583864.987 131475.263 -715340.25
  69500     .0695  214106.799 225514.381 -439621.18 665135.561 -11407.582 -653727.98
  70000       .07  138356.922 292243.227 -430600.15 722843.376  -153886.3 -568957.07
  70500     .0705  57705.6836 348619.211 -406324.89 754944.105 -290913.53 -464030.58
