   ---   55   cards of disk file read into card cache cells  1   onward.
 <===> Done with  "/"-card sorting by data class.    Remember that the source file appears different from interpreted input data.
Alternative Transients Program (ATP),  F77 GNU Linux or DOS.  All rights reserved by Can/Am user group of Portland, Oregon, USA.
 Date (dd-mth-yy) and time of day (hh.mm.ss) = 11-Nov-18  11.00.00    Name of disk plot file, if any, is
Consult the 860-page ATP Rule Book of the Can/Am EMTP User Group in Portland,  Oregon, USA.  Source code date is
Total size of LABCOM tables = 16446853 INTEGER words.  31 VARDIM  List Sizes follow:  6002  10K  192K  900  420K  1200  15K
  120K  2250  3800  720  2K  72800  510  800K  800  90  254  800K  100K  3K  15K  192K  120  45K  260K  600  210K  1100  19  200K
--------------------------------------------------+--------------------------------------------------------------------------------
Descriptive interpretation of input data cards.   |  Input data card images are shown below, all 80 columns, character by character
                                                  0         1         2         3         4         5         6         7         8
                                                  012345678901234567890123456789012345678901234567890123456789012345678901234567890
--------------------------------------------------+--------------------------------------------------------------------------------
Comment card.   KOMPAR > 0.                       |C data:Caso0_ReEnergizacao_Convenc_SemControle.atp
Marker card preceding new EMTP data case.         |BEGIN NEW DATA CASE
Comment card.   KOMPAR > 0.                       |C $DUMMY, XYZ000
Misc. data.     1.000E-06   1.000E+00   0.000E+00 |   1.E-6      1.
Misc. data.  500  1  0  0  1  0  0  1  300  0     |     500       1       0       0       1       0       0       1     300
Statistics data.      1    1    0    0    1    0  |       1       1       0       0       1      -1                               0
Series R-L-C.   5.000E+00  7.500E-02  0.000E+00   |  X0001AX0007A                5.   75.                                         0
Series R-L-C.   5.000E+00  7.500E-02  0.000E+00   |  X0001BX0007B                5.   75.                                         0
Series R-L-C.   5.000E+00  7.500E-02  0.000E+00   |  X0001CX0007C                5.   75.                                         0
Series R-L-C.   2.000E+02  0.000E+00  0.000E+00   |  X0007AX0001A              200.                                               0
Series R-L-C.   2.000E+02  0.000E+00  0.000E+00   |  X0007BX0001B              200.                                               0
Series R-L-C.   2.000E+02  0.000E+00  0.000E+00   |  X0007CX0001C              200.                                               0
Series R-L-C.   1.516E+00  1.608E+00  0.000E+00   |  X0003BXX0008            1.5155 1608.                                         0
Series R-L-C.   1.516E+00  1.608E+00  0.000E+00   |  X0003AXX0008            1.5155 1608.                                         0
Series R-L-C.   1.516E+00  1.608E+00  0.000E+00   |  X0003CXX0008            1.5155 1608.                                         0
Series R-L-C.   3.272E-01  3.472E-01  0.000E+00   |  XX0008                   .3272 347.2                                         0
Series R-L-C.   3.000E+01  0.000E+00  0.000E+00   |  XX0009                     30.                                               0
Series R-L-C.   3.000E+02  0.000E+00  0.000E+00   |  X0002AX0010A              300.                                               0
Series R-L-C.   3.000E+02  0.000E+00  0.000E+00   |  X0002BX0010B              300.                                               0
Series R-L-C.   3.000E+02  0.000E+00  0.000E+00   |  X0002CX0010C              300.                                               0
Dynamic $INCLUDE uses fixed RAM cache to delay.   |$INSERT, C:\SimulacaoATP\EXT1.pch
J. Marti line, mode  1   parameters begin.        |-1X0010AX0006C                2.  0.00              -2 3
J. Marti line, mode  2   parameters begin.        |-2X0010BX0006A                2.  0.00              -2 3
J. Marti line, mode  3   parameters begin.        |-3X0010CX0006B                2.  0.00              -2 3
TR(1,1 )...  0.667-0.707-0.317                    |  0.66668704 -0.70710678 -0.31743981
TI(1,1 )...  0.000 0.000 0.004                    |  0.00000000  0.00000000  0.00360196
TR(2,1 )...  0.333 0.000 0.894                    |  0.33285412  0.00000000  0.89350256
TI(2,1 )... -0.016 0.000 0.010                    | -0.01627623  0.00000000  0.00954818
TR(3,1 )...  0.667 0.707-0.317                    |  0.66668704  0.70710678 -0.31743981
TI(3,1 )...  0.000 0.000 0.004                    |  0.00000000  0.00000000  0.00360196
Dynamic $INCLUDE uses fixed RAM cache to delay.   |$INSERT, C:\SimulacaoATP\CONV2.pch
J. Marti line, mode  1   parameters begin.        |-1X0004AX0005C                2.  0.00              -2 3
J. Marti line, mode  2   parameters begin.        |-2X0004BX0005A                2.  0.00              -2 3
J. Marti line, mode  3   parameters begin.        |-3X0004CX0005B                2.  0.00              -2 3
TR(1,1 )...  0.667-0.707-0.317                    |  0.66668704 -0.70710678 -0.31743981
TI(1,1 )...  0.000 0.000 0.004                    |  0.00000000  0.00000000  0.00360196
TR(2,1 )...  0.333 0.000 0.894                    |  0.33285412  0.00000000  0.89350256
TI(2,1 )... -0.016 0.000 0.010                    | -0.01627623  0.00000000  0.00954818
TR(3,1 )...  0.667 0.707-0.317                    |  0.66668704  0.70710678 -0.31743981
TI(3,1 )...  0.000 0.000 0.004                    |  0.00000000  0.00000000  0.00360196
Dynamic $INCLUDE uses fixed RAM cache to delay.   |$INSERT, C:\SimulacaoATP\EXT3.pch
J. Marti line, mode  1   parameters begin.        |-1X0005AX0003A                2.  0.00              -2 3
J. Marti line, mode  2   parameters begin.        |-2X0005BX0003B                2.  0.00              -2 3
J. Marti line, mode  3   parameters begin.        |-3X0005CX0003C                2.  0.00              -2 3
TR(1,1 )...  0.667-0.707-0.317                    |  0.66668704 -0.70710678 -0.31743981
TI(1,1 )...  0.000 0.000 0.004                    |  0.00000000  0.00000000  0.00360196
TR(2,1 )...  0.333 0.000 0.894                    |  0.33285412  0.00000000  0.89350256
TI(2,1 )... -0.016 0.000 0.010                    | -0.01627623  0.00000000  0.00954818
TR(3,1 )...  0.667 0.707-0.317                    |  0.66668704  0.70710678 -0.31743981
TI(3,1 )...  0.000 0.000 0.004                    |  0.00000000  0.00000000  0.00360196
Dynamic $INCLUDE uses fixed RAM cache to delay.   |$INSERT, C:\SimulacaoATP\CONV4.pch
J. Marti line, mode  1   parameters begin.        |-1X0006AX0004C                2.  0.00              -2 3
J. Marti line, mode  2   parameters begin.        |-2X0006BX0004A                2.  0.00              -2 3
J. Marti line, mode  3   parameters begin.        |-3X0006CX0004B                2.  0.00              -2 3
TR(1,1 )...  0.667-0.707-0.317                    |  0.66668704 -0.70710678 -0.31743981
TI(1,1 )...  0.000 0.000 0.004                    |  0.00000000  0.00000000  0.00360196
TR(2,1 )...  0.333 0.000 0.894                    |  0.33285412  0.00000000  0.89350256
TI(2,1 )... -0.016 0.000 0.010                    | -0.01627623  0.00000000  0.00954818
TR(3,1 )...  0.667 0.707-0.317                    |  0.66668704  0.70710678 -0.31743981
TI(3,1 )...  0.000 0.000 0.004                    |  0.00000000  0.00000000  0.00360196
Blank card ending branches.  IBR, NTOT = 26  27   |BLANK BRANCH
Switch.   5.50E-02  1.00E-03  0.00E+00  3.33E+03  |  X0001BX0002B      .055      .001               3333.STATISTICS               0
Switch.   5.50E-02  1.00E-03  0.00E+00  3.33E+03  |  X0001AX0002A      .055      .001               3333.STATISTICS               0
Switch.   5.50E-02  1.00E-03  0.00E+00  3.33E+03  |  X0001CX0002C      .055      .001               3333.STATISTICS               0
Switch.   1.00E-02  1.00E-03  0.00E+00  0.00E+00  |  X0003CXX0009       .01      .001                    STATISTICS               1
Switch.   7.00E-01  1.00E-03  0.00E+00  0.00E+00  |  X0001BX0002B        .7      .001                    STATISTICS               0
Switch.   7.00E-01  1.00E-03  0.00E+00  0.00E+00  |  X0001AX0002A        .7      .001                    STATISTICS               0
Switch.   7.00E-01  1.00E-03  0.00E+00  0.00E+00  |  X0001CX0002C        .7      .001                    STATISTICS               0
Switch.   0.00E+00  6.98E-01  0.00E+00  0.00E+00  |  X0002AX0010A                .698                                             0
Switch.   0.00E+00  6.98E-01  0.00E+00  0.00E+00  |  X0002BX0010B                .698                                             0
Switch.   0.00E+00  6.98E-01  0.00E+00  0.00E+00  |  X0002CX0010C                .698                                             0
Switch.   7.10E-01  0.00E+00  0.00E+00  0.00E+00  |  X0002AX0010A       .71                                                       0
Switch.   7.10E-01  0.00E+00  0.00E+00  0.00E+00  |  X0002BX0010B       .71                                                       0
Switch.   7.10E-01  0.00E+00  0.00E+00  0.00E+00  |  X0002CX0010C       .71                                                       0
Blank card ending switches.   KSWTCH = 13.        |BLANK SWITCH
Source.   4.29E+05  6.00E+01  0.00E+00 -1.00E+00  |14X0007A  428660.705       60.                                     -1.      100.
Source.   4.29E+05  6.00E+01 -1.20E+02 -1.00E+00  |14X0007B  428660.705       60.     -120.                           -1.      100.
Source.   4.29E+05  6.00E+01 -2.40E+02 -1.00E+00  |14X0007C  428660.705       60.     -240.                           -1.      100.
Blank card ends electric sources.  KCONST = 3     |BLANK SOURCE

     Total network loss  P-loss  by summing injections =   1.935506296561E+08

Card of names for time-step loop output.          |  X0003AX0003BX0003C
Output voltage differences for pairs of A6 names  |-5X0003BX0003CX0003AX0003BX0003CX0003A
Blank card ending requests for output variables.  |BLANK OUTPUT

Column headings for the  7   EMTP output variables follow.  These are divided among the 5 possible classes as follows ....
  First  6     output variables are electric-network voltage differences (upper voltage minus lower voltage);
  Next   1     output variables are branch currents (flowing from the upper node to the lower node);
   Step      Time      X0003A     X0003B     X0003C     X0003B     X0003A     X0003C     X0003C
                                                        X0003C     X0003B     X0003A     XX0009
 ***      Phasor I(0) =  3.4845150E+02                     Switch  "X0001B"  to  "X0002B"  closed in the steady-state.
 ***      Phasor I(0) =  3.0566510E+02                     Switch  "X0001A"  to  "X0002A"  closed in the steady-state.
 ***      Phasor I(0) = -6.5298890E+02                     Switch  "X0001C"  to  "X0002C"  closed in the steady-state.
 ***                    Switch  "X0002A"  to  "X0010A"  closed  after  0.00000000E+00  sec.
 ***                    Switch  "X0002B"  to  "X0010B"  closed  after  0.00000000E+00  sec.
 ***                    Switch  "X0002C"  to  "X0010C"  closed  after  0.00000000E+00  sec.
      0       0.0  352723.116 -336319.83 -13505.877 -322813.96 689042.948 -366228.99        0.0
    500     .5E-3  380181.436 -289796.16 -86883.243 -202912.92 669977.599 -467064.68        0.0
   1000     .1E-2  395762.715 -233572.05 -157372.04 -76200.004  629334.76 -553134.76        0.0
   1500     .0015  396679.486 -168957.92 -222206.14 53248.2121 565637.411 -618885.62        0.0
   2000      .002   462494.86 29881.0087 -537969.75  567850.76 432613.852 -.100046E7        0.0
   2500     .0025  411906.991 190138.529 -604859.35 794997.876 221768.462 -.101677E7        0.0
   3000      .003  331531.936 305924.713 -638703.72 944628.433 25607.2227 -970235.66        0.0
   3500     .0035  226317.086 388254.697 -620729.47 .1008984E7 -161937.61 -847046.55        0.0
   4000      .004  115185.767 465413.539 -560998.83 .1026412E7 -350227.77 -676184.59        0.0
   4500     .0045  4874.28046 524631.207 -494762.01 .1019393E7 -519756.93 -499636.29        0.0
   5000      .005  -116176.16 558210.281 -414908.22 973118.502 -674386.44 -298732.06        0.0
   5500     .0055   -274274.5 529669.279 -237678.06 767347.343 -803943.78 36596.4336        0.0
   6000      .006  -381051.44 462994.577 -67815.671 530810.248 -844046.02 313235.773        0.0
   6500     .0065  -448343.96 393738.709  73890.094 319848.615 -842082.67 522234.056        0.0
   7000      .007  -488269.63 327607.482 176865.255 150742.228 -815877.12 665134.888        0.0
   7500     .0075   -501674.3 263343.407  239888.94 23454.4664  -765017.7 741563.236        0.0
   8000      .008  -496715.18 192195.178 287115.981 -94920.803 -688910.35 783831.157        0.0
   8500     .0085  -474941.64 115488.314 325918.275 -210429.96 -590429.95 800859.912        0.0
   9000      .009   -416987.5 46849.7009 330447.798  -283598.1  -463837.2 747435.297        0.0
   9500     .0095  -348943.04 -1591.5404 314324.498 -315916.04  -347351.5 663267.543        0.0
  10000       .01  -286710.54 -43944.943 296829.296 -340774.24  -242765.6 583539.838        0.0
 ***                                                             Close switch  "X0003C"  to  "XX0009"  after  1.00010000E-02  sec.
  10500     .0105  -298354.53 -164643.02 27909.4814 -192552.51 -133711.51 326264.011 930.316046
  11000      .011  -251552.46 -223690.87 30240.3024 -253931.17 -27861.592 281792.762 1008.01008
  11500     .0115  -199638.58 -291977.87 33574.0335 -325551.91 92339.2874 233212.618 1119.13445
  12000      .012  -151484.84 -368326.72 38830.9252 -407157.65 216841.886 190315.762 1294.36417
  12500     .0125  -99695.002 -422352.84 42306.5881 -464659.43 322657.836  142001.59  1410.2196
  13000      .013  -29961.411 -471122.72  43810.242 -514932.96 441161.307 73771.6534  1460.3414
  13500     .0135  -8257.9253 -529402.41 46024.3139 -575426.73 521144.489 54282.2392  1534.1438
  14000      .014  1270.72461 -624288.41 55449.0079 -679737.42 625559.136 54178.2833 1848.30026
  14500     .0145  124082.414  -596733.8 62570.5961 -659304.39 720816.212 -61511.818 2085.68654
  15000      .015  240732.652 -533255.66 64176.5167 -597432.18 773988.311 -176556.14 2139.21722
  15500     .0155   334908.09 -453531.66  59635.541  -513167.2 788439.746 -275272.55 1987.85137
  16000      .016  422994.801 -360412.26 52149.5984 -412561.86 783407.065  -370845.2 1738.31995
  16500     .0165  501770.785   -248654. 43216.6195 -291870.62 750424.785 -458554.17 1440.55398
  17000      .017  569099.603 -117333.15 31610.4386 -148943.59  686432.75 -537489.16 1053.68129
  17500     .0175  607632.332 18128.5538 18794.8077 -666.25388 589503.778 -588837.52  626.49359
  18000      .018  610727.208  156950.78 10081.7397  146869.04 453776.428 -600645.47 336.057991
  18500     .0185  586119.565 284961.477 4517.14175 280444.335 301158.088 -581602.42 150.571392
  19000      .019  532097.493 386957.594 -2652.4203 389610.014 145139.899 -534749.91 -88.414011
  19500     .0195  452513.193   465946.5 -11108.378 477054.877 -13433.307 -463621.57 -370.27926
  20000       .02  349690.078 521749.215 -19920.363 541669.579 -172059.14 -369610.44 -664.01211
  20500     .0205  233524.425 554798.938 -28551.401 583350.338 -321274.51 -262075.83 -951.71336
  21000      .021  112760.418 566284.305 -37042.249 603326.554 -453523.89 -149802.67 -1234.7416
  21500     .0215   -13823.38  549062.83 -44564.119 593626.949 -562886.21 -30740.739 -1485.4706
  22000      .022   -139937.9 506713.246 -49397.863 556111.109 -646651.14  90540.036 -1646.5954
  22500     .0225  -250513.24 455729.622 -51357.312 507086.935 -706242.86 199155.929 -1711.9104
  23000      .023  -340024.14 403369.679 -50858.027 454227.706 -743393.82 289166.109 -1695.2676
  23500     .0235  -409332.61 347221.103 -48545.676 395766.779 -756553.71 360786.933 -1618.1892
  24000      .024  -460262.73 284988.311 -44625.158 329613.469 -745251.04 415637.567 -1487.5053
  24500     .0245  -493245.28 216924.755 -39221.154 256145.909 -710170.03 454024.125 -1307.3718
  25000      .025  -508361.03 144810.392 -32812.952 177623.344 -653171.42 475548.081 -1093.7651
  25500     .0255  -508590.71 68201.2666 -25589.334 93790.6009 -576791.98 483001.377 -852.97781
  26000      .026  -495486.44 -12976.374 -17087.772  4111.3971 -482510.07 478398.672 -569.59239
  26500     .0265  -470023.74 -98782.156 -7135.6912 -91646.465 -371241.58 462888.046 -237.85637
  27000      .027  -433660.19  -188334.1 3682.14076 -192016.24 -245326.09 437342.334 122.738025
  27500     .0275  -387025.95 -278505.86 14597.1648 -293103.03 -108520.09  401623.12 486.572158
  28000      .028  -330113.79 -364763.48 25026.0667 -389789.54 34649.6846  355139.86 834.202225
  28500     .0285  -262439.31 -441735.92 34499.1301 -476235.05  179296.61 296938.441   1149.971
  29000      .029  -184098.65 -504479.49 42519.2323 -546998.72 320380.832 226617.887 1417.30774
  29500     .0295  -97503.152 -549744.25 48755.4376 -598499.69 452241.101  146258.59 1625.18125
  30000       .03  -5541.6254 -574606.76 53165.5546 -627772.32 569065.135   58707.18 1772.18515
  30500     .0305  89848.7522 -575762.99 55803.2687 -631566.26 665611.742 -34045.483 1860.10896
  31000      .031  186618.807 -550888.89 56701.1784 -607590.07 737507.698 -129917.63 1890.03928
  31500     .0315  281217.883 -500230.66 55851.4218 -556082.08 781448.542 -225366.46 1861.71406
  32000      .032  368925.179 -426631.15 53268.0171 -479899.17  795556.33 -315657.16 1775.60057
  32500     .0325  445077.664 -334418.04  48999.403 -383417.44 779495.704 -396078.26 1633.31343
  33000      .033  505700.313 -228677.52 43088.1254 -271765.65 734377.833 -462612.19 1436.27085
  33500     .0335  547451.627 -115080.15 35647.9768 -150728.13  662531.78 -511803.65 1188.26589
  34000      .034  567836.252 576.102323 26961.0049 -26384.903  567260.15 -540875.25 898.700164
  34500     .0345  565359.924 112743.789 17426.3133 95317.4755 452616.135 -547933.61 580.877109
  35000      .035   539749.61 216490.691 7436.02223 209054.668  323258.92 -532313.59 247.867408
  35500     .0355  492114.149  307945.26   -2667.81  310613.07 184168.889 -494781.96 -88.927001
  36000      .036  424860.162 384538.462 -12562.386 397100.848 40321.6997 -437422.55 -418.74619
  36500     .0365  341478.642 444961.201  -21934.28  466895.48 -103482.56 -363412.92 -731.14265
  37000      .037  246090.982 488774.694 -30502.383 519277.078 -242683.71 -276593.37 -1016.7461
  37500     .0375  142940.925 515926.357 -38012.982 553939.339 -372985.43 -180953.91 -1267.0994
  38000      .038  36248.6114 526596.361  -44216.23 570812.592 -490347.75 -80464.842 -1473.8743
  38500     .0385  -69771.158 521290.301 -48867.628 570157.929 -591061.46 20903.5299 -1628.9209
  39000      .039  -171063.72 500811.997 -51754.794 552566.792 -671875.72 119308.929 -1725.1598
  39500     .0395  -264054.18 466015.131 -52726.844 518741.976 -730069.31 211327.332 -1757.5615
  40000       .04  -345855.89 417626.524 -51710.437 469336.961 -763482.42 294145.456 -1723.6812
  40500     .0405  -414233.44 356350.654 -48720.799 405071.453 -770584.09 365512.639 -1624.0266
  41000      .041  -467498.12 283116.541 -43871.182 326987.723 -750614.66 423626.935 -1462.3727
  41500     .0415  -504467.65 199292.097 -37362.858 236654.956 -703759.74 467104.789 -1245.4286
  42000      .042  -524447.12 106811.671 -29456.615 136268.286 -631258.79 494990.504 -981.88715
  % % % % % %   Suspended simulation;  plot data space exhausted;  SPY SPACE is required.   LIMBUF =  340000.
  % % % % % %   Suspended simulation;  plot data space exhausted;  SPY SPACE is required.   LIMBUF =  340000.
  +++  Time-sharing disabled.   Send  user-keyed interrupt to silence alarm.
