   ---   55   cards of disk file read into card cache cells  1   onward.
 <===> Done with  "/"-card sorting by data class.    Remember that the source file appears different from interpreted input data.
Alternative Transients Program (ATP),  F77 GNU Linux or DOS.  All rights reserved by Can/Am user group of Portland, Oregon, USA.
 Date (dd-mth-yy) and time of day (hh.mm.ss) = 11-Nov-18  11.00.00    Name of disk plot file, if any, is
Consult the 860-page ATP Rule Book of the Can/Am EMTP User Group in Portland,  Oregon, USA.  Source code date is
Total size of LABCOM tables = 16446853 INTEGER words.  31 VARDIM  List Sizes follow:  6002  10K  192K  900  420K  1200  15K
  120K  2250  3800  720  2K  72800  510  800K  800  90  254  800K  100K  3K  15K  192K  120  45K  260K  600  210K  1100  19  200K
--------------------------------------------------+--------------------------------------------------------------------------------
Descriptive interpretation of input data cards.   |  Input data card images are shown below, all 80 columns, character by character
                                                  0         1         2         3         4         5         6         7         8
                                                  012345678901234567890123456789012345678901234567890123456789012345678901234567890
--------------------------------------------------+--------------------------------------------------------------------------------
Comment card.   KOMPAR > 0.                       |C data:Caso0_ReEnergizacao_Convenc_RPI.atp
Marker card preceding new EMTP data case.         |BEGIN NEW DATA CASE
Comment card.   KOMPAR > 0.                       |C $DUMMY, XYZ000
Misc. data.     1.000E-06   1.000E+00   0.000E+00 |   1.E-6      1.
Misc. data.  500  1  0  0  1  0  0  1  300  0     |     500       1       0       0       1       0       0       1     300
Statistics data.      1    1    0    0    1    0  |       1       1       0       0       1      -1                               0
Series R-L-C.   5.000E+00  7.500E-02  0.000E+00   |  X0001AX0007A                5.   75.                                         0
Series R-L-C.   5.000E+00  7.500E-02  0.000E+00   |  X0001BX0007B                5.   75.                                         0
Series R-L-C.   5.000E+00  7.500E-02  0.000E+00   |  X0001CX0007C                5.   75.                                         0
Series R-L-C.   2.000E+02  0.000E+00  0.000E+00   |  X0007AX0001A              200.                                               0
Series R-L-C.   2.000E+02  0.000E+00  0.000E+00   |  X0007BX0001B              200.                                               0
Series R-L-C.   2.000E+02  0.000E+00  0.000E+00   |  X0007CX0001C              200.                                               0
Series R-L-C.   1.516E+00  1.608E+00  0.000E+00   |  X0003BXX0008            1.5155 1608.                                         0
Series R-L-C.   1.516E+00  1.608E+00  0.000E+00   |  X0003AXX0008            1.5155 1608.                                         0
Series R-L-C.   1.516E+00  1.608E+00  0.000E+00   |  X0003CXX0008            1.5155 1608.                                         0
Series R-L-C.   3.272E-01  3.472E-01  0.000E+00   |  XX0008                   .3272 347.2                                         0
Series R-L-C.   3.000E+01  0.000E+00  0.000E+00   |  XX0009                     30.                                               0
Series R-L-C.   8.000E+02  0.000E+00  0.000E+00   |  X0002AX0010A              800.                                               0
Series R-L-C.   8.000E+02  0.000E+00  0.000E+00   |  X0002BX0010B              800.                                               0
Series R-L-C.   8.000E+02  0.000E+00  0.000E+00   |  X0002CX0010C              800.                                               0
Dynamic $INCLUDE uses fixed RAM cache to delay.   |$INSERT, C:\SimulacaoATP\1\EXT1.pch
J. Marti line, mode  1   parameters begin.        |-1X0010AX0006C                2.  0.00              -2 3
J. Marti line, mode  2   parameters begin.        |-2X0010BX0006A                2.  0.00              -2 3
J. Marti line, mode  3   parameters begin.        |-3X0010CX0006B                2.  0.00              -2 3
TR(1,1 )...  0.667-0.707-0.317                    |  0.66668704 -0.70710678 -0.31743981
TI(1,1 )...  0.000 0.000 0.004                    |  0.00000000  0.00000000  0.00360196
TR(2,1 )...  0.333 0.000 0.894                    |  0.33285412  0.00000000  0.89350256
TI(2,1 )... -0.016 0.000 0.010                    | -0.01627623  0.00000000  0.00954818
TR(3,1 )...  0.667 0.707-0.317                    |  0.66668704  0.70710678 -0.31743981
TI(3,1 )...  0.000 0.000 0.004                    |  0.00000000  0.00000000  0.00360196
Dynamic $INCLUDE uses fixed RAM cache to delay.   |$INSERT, C:\SimulacaoATP\1\CONV2.pch
J. Marti line, mode  1   parameters begin.        |-1X0004AX0005C                2.  0.00              -2 3
J. Marti line, mode  2   parameters begin.        |-2X0004BX0005A                2.  0.00              -2 3
J. Marti line, mode  3   parameters begin.        |-3X0004CX0005B                2.  0.00              -2 3
TR(1,1 )...  0.667-0.707-0.317                    |  0.66668704 -0.70710678 -0.31743981
TI(1,1 )...  0.000 0.000 0.004                    |  0.00000000  0.00000000  0.00360196
TR(2,1 )...  0.333 0.000 0.894                    |  0.33285412  0.00000000  0.89350256
TI(2,1 )... -0.016 0.000 0.010                    | -0.01627623  0.00000000  0.00954818
TR(3,1 )...  0.667 0.707-0.317                    |  0.66668704  0.70710678 -0.31743981
TI(3,1 )...  0.000 0.000 0.004                    |  0.00000000  0.00000000  0.00360196
Dynamic $INCLUDE uses fixed RAM cache to delay.   |$INSERT, C:\SimulacaoATP\1\EXT3.pch
J. Marti line, mode  1   parameters begin.        |-1X0005AX0003A                2.  0.00              -2 3
J. Marti line, mode  2   parameters begin.        |-2X0005BX0003B                2.  0.00              -2 3
J. Marti line, mode  3   parameters begin.        |-3X0005CX0003C                2.  0.00              -2 3
TR(1,1 )...  0.667-0.707-0.317                    |  0.66668704 -0.70710678 -0.31743981
TI(1,1 )...  0.000 0.000 0.004                    |  0.00000000  0.00000000  0.00360196
TR(2,1 )...  0.333 0.000 0.894                    |  0.33285412  0.00000000  0.89350256
TI(2,1 )... -0.016 0.000 0.010                    | -0.01627623  0.00000000  0.00954818
TR(3,1 )...  0.667 0.707-0.317                    |  0.66668704  0.70710678 -0.31743981
TI(3,1 )...  0.000 0.000 0.004                    |  0.00000000  0.00000000  0.00360196
Dynamic $INCLUDE uses fixed RAM cache to delay.   |$INSERT, C:\SimulacaoATP\1\CONV4.pch
J. Marti line, mode  1   parameters begin.        |-1X0006AX0004C                2.  0.00              -2 3
J. Marti line, mode  2   parameters begin.        |-2X0006BX0004A                2.  0.00              -2 3
J. Marti line, mode  3   parameters begin.        |-3X0006CX0004B                2.  0.00              -2 3
TR(1,1 )...  0.667-0.707-0.317                    |  0.66668704 -0.70710678 -0.31743981
TI(1,1 )...  0.000 0.000 0.004                    |  0.00000000  0.00000000  0.00360196
TR(2,1 )...  0.333 0.000 0.894                    |  0.33285412  0.00000000  0.89350256
TI(2,1 )... -0.016 0.000 0.010                    | -0.01627623  0.00000000  0.00954818
TR(3,1 )...  0.667 0.707-0.317                    |  0.66668704  0.70710678 -0.31743981
TI(3,1 )...  0.000 0.000 0.004                    |  0.00000000  0.00000000  0.00360196
Blank card ending branches.  IBR, NTOT = 26  27   |BLANK BRANCH
Switch.   5.50E-02  1.00E-03  0.00E+00  3.33E+03  |  X0001BX0002B      .055      .001               3333.STATISTICS               0
Switch.   5.50E-02  1.00E-03  0.00E+00  3.33E+03  |  X0001AX0002A      .055      .001               3333.STATISTICS               0
Switch.   5.50E-02  1.00E-03  0.00E+00  3.33E+03  |  X0001CX0002C      .055      .001               3333.STATISTICS               0
Switch.   1.00E-02  1.00E-03  0.00E+00  0.00E+00  |  X0003CXX0009       .01      .001                    STATISTICS               1
Switch.   7.00E-01  1.00E-03  0.00E+00  0.00E+00  |  X0001BX0002B        .7      .001                    STATISTICS               0
Switch.   7.00E-01  1.00E-03  0.00E+00  0.00E+00  |  X0001AX0002A        .7      .001                    STATISTICS               0
Switch.   7.00E-01  1.00E-03  0.00E+00  0.00E+00  |  X0001CX0002C        .7      .001                    STATISTICS               0
Switch.   0.00E+00  6.98E-01  0.00E+00  0.00E+00  |  X0002AX0010A                .698                                             0
Switch.   0.00E+00  6.98E-01  0.00E+00  0.00E+00  |  X0002BX0010B                .698                                             0
Switch.   0.00E+00  6.98E-01  0.00E+00  0.00E+00  |  X0002CX0010C                .698                                             0
Switch.   7.10E-01  0.00E+00  0.00E+00  0.00E+00  |  X0002AX0010A       .71                                                       0
Switch.   7.10E-01  0.00E+00  0.00E+00  0.00E+00  |  X0002BX0010B       .71                                                       0
Switch.   7.10E-01  0.00E+00  0.00E+00  0.00E+00  |  X0002CX0010C       .71                                                       0
Blank card ending switches.   KSWTCH = 13.        |BLANK SWITCH
Source.   4.29E+05  6.00E+01  0.00E+00 -1.00E+00  |14X0007A  428660.705       60.                                     -1.      100.
Source.   4.29E+05  6.00E+01 -1.20E+02 -1.00E+00  |14X0007B  428660.705       60.     -120.                           -1.      100.
Source.   4.29E+05  6.00E+01 -2.40E+02 -1.00E+00  |14X0007C  428660.705       60.     -240.                           -1.      100.
Blank card ends electric sources.  KCONST = 3     |BLANK SOURCE

     Total network loss  P-loss  by summing injections =   2.244832896729E+08

Card of names for time-step loop output.          |  X0003AX0003BX0003C
Output voltage differences for pairs of A6 names  |-5X0003BX0003CX0003AX0003BX0003CX0003A
Blank card ending requests for output variables.  |BLANK OUTPUT

Column headings for the  7   EMTP output variables follow.  These are divided among the 5 possible classes as follows ....
  First  6     output variables are electric-network voltage differences (upper voltage minus lower voltage);
  Next   1     output variables are branch currents (flowing from the upper node to the lower node);
   Step      Time      X0003A     X0003B     X0003C     X0003B     X0003A     X0003C     X0003C
                                                        X0003C     X0003B     X0003A     XX0009
 ***      Phasor I(0) =  4.6916394E+01                     Switch  "X0001B"  to  "X0002B"  closed in the steady-state.
 ***      Phasor I(0) =  3.5108351E+02                     Switch  "X0001A"  to  "X0002A"  closed in the steady-state.
 ***      Phasor I(0) = -3.9484443E+02                     Switch  "X0001C"  to  "X0002C"  closed in the steady-state.
 ***                    Switch  "X0002A"  to  "X0010A"  closed  after  0.00000000E+00  sec.
 ***                    Switch  "X0002B"  to  "X0010B"  closed  after  0.00000000E+00  sec.
 ***                    Switch  "X0002C"  to  "X0010C"  closed  after  0.00000000E+00  sec.
      0       0.0  152722.069 -263846.85 108251.033 -372097.89 416568.922 -44471.035        0.0
    500     .5E-3  189680.234 -253424.38 62078.7274 -315503.11 443104.617 -127601.51        0.0
   1000     .1E-2  220672.338 -234375.83 13245.9886 -247621.82 455048.172 -207426.35        0.0
   1500     .0015  243084.102 -207189.59 -35910.083 -171279.51 450273.692 -278994.19        0.0
   2000      .002  562767.004  -109008.4 -519632.47  410624.07 671775.403  -.10824E7        0.0
   2500     .0025  553757.442 53915.0959 -634824.07 688739.162 499842.346 -.118858E7        0.0
   3000      .003  493563.136  190500.64 -716123.11 906623.752 303062.496 -.120969E7        0.0
   3500     .0035  401144.124 294385.244 -731150.47 .1025536E7 106758.881 -.113229E7        0.0
   4000      .004  290079.182 406731.506 -681226.91 .1087958E7 -116652.32 -971306.09        0.0
   4500     .0045  167097.631 509102.861 -623346.55 .1132449E7 -342005.23 -790444.18        0.0
   5000      .005  16200.4539 581079.789  -543750.8 .1124831E7 -564879.34 -559951.26        0.0
   5500     .0055  -261246.53  603573.01 -297226.77 900799.783 -864819.54 -35980.239        0.0
   6000      .006  -457531.41 557299.645 -71473.972 628773.618 -.101483E7 386057.442        0.0
   6500     .0065  -566852.24 489280.621 122658.265 366622.356 -.105613E7 689510.509        0.0
   7000      .007  -625914.95 412115.064  267630.59 144484.474 -.103803E7 893545.544        0.0
   7500     .0075  -647169.65  328624.42 350249.072 -21624.652 -975794.07 997418.719        0.0
   8000      .008  -635969.33 227034.974 401996.094 -174961.12  -863004.3 .1037965E7        0.0
   8500     .0085   -590483.9 112177.285 435394.787  -323217.5 -702661.18 .1025879E7        0.0
   9000      .009  -473566.43 4485.28919 401809.418 -397324.13 -478051.72 875375.849        0.0
   9500     .0095  -334396.44 -73628.573 337281.853 -410910.43 -260767.87 671678.293        0.0
  10000       .01  -218211.27 -127790.55 274535.874 -402326.42 -90420.728 492747.148        0.0
 ***                                                             Close switch  "X0003C"  to  "XX0009"  after  1.00010000E-02  sec.
  10500     .0105  -180761.16 -228661.07 22167.6136 -250828.68 47899.9069 202928.777 738.920454
  11000      .011  -109868.12 -270764.48 21856.5347 -292621.02 160896.364 131724.655 728.551156
  11500     .0115  -55042.306 -317494.59 23820.0334 -341314.62 262452.279 78862.3396 794.001114
  12000      .012  -22068.934 -364744.53 28547.7896 -393292.32 342675.595 50616.7236 951.592985
  12500     .0125  -10023.323 -391987.03 33292.3498 -425279.38 381963.705 43315.6724 1109.74499
  13000      .013  -1089.7575 -421001.35 37837.5381 -458838.89 419911.593 38927.2956 1261.25127
  13500     .0135   -35518.32 -469383.73 43668.2685 -513051.99 433865.405 79186.5885 1455.60895
  14000      .014  -59467.255 -555914.34 54920.3047 -610834.65 496447.086  114387.56 1830.67682
  14500     .0145  36259.3539 -534853.35 62169.2317 -597022.58 571112.706 25909.8778 2072.30772
  15000      .015  135084.127 -492262.26 62493.9904 -554756.25 627346.385 -72590.136 2083.13301
  15500     .0155   228812.21 -440464.37 56469.2485 -496933.62 669276.583 -172342.96 1882.30828
  16000      .016  333395.487 -377625.79 47621.5527 -425247.34 711021.277 -285773.93 1587.38509
  16500     .0165  442092.888 -295005.33 37681.5158 -332686.85 737098.218 -404411.37 1256.05053
  17000      .017  546601.879 -185038.17 26092.2914 -211130.46 731640.047 -520509.59 869.743047
  17500     .0175  622091.136 -57510.486 14457.1139   -71967.6 679601.623 -607634.02 481.903798
  18000      .018  657696.923 86555.5181 7080.38511  79475.133 571141.405 -650616.54 236.012837
  18500     .0185  656492.615 229920.321 2090.01681 227830.304 426572.294  -654402.6 69.6672271
  19000      .019  613543.216 355050.538 -4981.6054 360032.143 258492.679 -618524.82 -166.05351
  19500     .0195   531150.62  461136.41 -13572.688 474709.098 70014.2096 -544723.31 -452.42293
  20000       .02   412954.99 543960.494 -22640.164 566600.658  -131005.5 -435595.15 -754.67213
  20500     .0205  271600.646 598981.815 -31459.199 630441.014 -327381.17 -303059.84   -1048.64
  21000      .021  120432.907 622656.413 -39798.383 662454.796 -502223.51 -160231.29 -1326.6128
  21500     .0215  -35518.726 606855.008 -46726.463 653581.471 -642373.73 -11207.737 -1557.5488
  22000      .022  -184538.28 557083.738 -50800.734 607884.471 -741622.02 133737.545 -1693.3578
  22500     .0225  -309182.27 491168.447 -52167.194 543335.641 -800350.71 257015.072 -1738.9065
  23000      .023  -402988.77 417984.235 -51433.934  469418.17 -820973.01 351554.838 -1714.4645
  23500     .0235  -466674.05 338355.676 -49243.489 387599.166 -805029.72 417430.558 -1641.4496
  24000      .024  -503409.92 253983.298 -45721.317 299704.616 -757393.22 457688.608 -1524.0439
  24500     .0245  -516730.86 168883.026 -40865.952 209748.978 -685613.89 475864.907 -1362.1984
  25000      .025  -510606.14 87584.0073 -34940.733  122524.74 -598190.15 475665.407 -1164.6911
  25500     .0255    -491279. 10978.9559 -27924.427  38903.383 -502257.96 463354.578 -930.81424
  26000      .026  -462857.84 -61331.457 -19323.942 -42007.514 -401526.38 443533.899 -644.13141
  26500     .0265  -428333.94 -131182.46 -9087.9024 -122094.56 -297151.48 419246.034 -302.93008
  27000      .027  -390212.09 -200459.29 2079.08772 -202538.38  -189752.8 392291.175 69.3029241
  27500     .0275  -348915.57 -269417.17 13329.7082 -282746.88 -79498.397 362245.278 444.323606
  28000      .028  -302997.43 -337029.93 24021.5417 -361051.47 34032.5053 327018.968 800.718056
  28500     .0285  -249766.94 -401047.72 33659.4904 -434707.21 151280.779 283426.429 1121.98301
  29000      .029  -186925.58 -458636.25 41779.1329 -500415.38 271710.662 228704.718 1392.63776
  29500     .0295  -114445.84  -507056.9 48107.8401 -555164.74 392611.062 162553.678 1603.59467
  30000       .03  -32979.938 -542325.98 52627.4919 -594953.47 509346.043 85607.4294 1754.24973
  30500     .0305  57041.1682 -559022.74 55372.8915 -614395.63 616063.907 -1668.2768 1845.76305
  31000      .031  154025.693 -552129.02 56340.6556 -608469.67 706154.709 -97685.037 1878.02185
  31500     .0315  253900.301 -518941.07 55494.8671 -574435.94 772841.373 -198405.43  1849.8289
  32000      .032  350652.856 -459488.88 52836.4372 -512325.31 810141.732 -297816.42 1761.21457
  32500     .0325  437835.456 -375925.06 48419.5962 -424344.66 813760.521 -389415.86 1613.98654
  33000      .033  509536.661 -272178.38 42324.1425 -314502.52 781715.039 -467212.52 1410.80475
  33500     .0335  560670.537 -153887.29 34726.9907 -188614.28 714557.831 -525943.55 1157.56636
  34000      .034  587420.644 -27880.327 25966.2206 -53846.548 615300.971 -561454.42 865.540688
  34500     .0345  587550.279 98399.6568  16463.599 81936.0579 489150.622 -571086.68 548.786633
  35000      .035  560707.946 217596.186 6601.48811 210994.698  343111.76 -554106.46 220.049604
  35500     .0355  508564.227 323297.425 -3307.7878 326605.212 185266.803 -511872.01 -110.25959
  36000      .036  434574.544 410692.249 -12981.931 423674.179 23882.2957 -447556.48 -432.73103
  36500     .0365  343511.175 476867.204 -22149.219 499016.422 -133356.03 -365660.39  -738.3073
  37000      .037  240764.299 520643.801 -30558.826 551202.627  -279879.5 -271323.13 -1018.6275
  37500     .0375  131678.101 542202.624 -37969.011 580171.635 -410524.52 -169647.11 -1265.6337
  38000      .038  21285.4219 542878.541 -44127.168 587005.708 -521593.12  -65412.59 -1470.9056
  38500     .0385  -85791.648 525020.615  -48778.93 573799.546 -610812.26 37012.7178 -1625.9643
  39000      .039  -185560.54 491608.793 -51700.178 543308.971 -677169.34 133860.365 -1723.3393
  39500     .0395  -274934.34 445624.522 -52728.676 498353.198 -720558.86  222205.66 -1757.6225
  40000       .04  -351806.98 389533.578 -51781.423 441315.001 -741340.56 300025.554 -1726.0474
  40500     .0405  -414854.14 325128.343 -48865.504 373993.846 -739982.48 365988.634 -1628.8501
  41000      .041  -463275.44 253629.362 -44084.765 297714.128  -716904.8 419190.674 -1469.4922
  41500     .0415  -496617.87 175892.943 -37627.726 213520.668 -672510.82 458990.147 -1254.2575
  42000      .042  -514651.32 92660.3675 -29741.376 122401.744 -607311.69 484909.947 -991.37921
  % % % % % %   Suspended simulation;  plot data space exhausted;  SPY SPACE is required.   LIMBUF =  340000.
  % % % % % %   Suspended simulation;  plot data space exhausted;  SPY SPACE is required.   LIMBUF =  340000.
  +++  Time-sharing disabled.   Send  user-keyed interrupt to silence alarm.
