   ---   55   cards of disk file read into card cache cells  1   onward.
 <===> Done with  "/"-card sorting by data class.    Remember that the source file appears different from interpreted input data.
Alternative Transients Program (ATP),  F77 GNU Linux or DOS.  All rights reserved by Can/Am user group of Portland, Oregon, USA.
 Date (dd-mth-yy) and time of day (hh.mm.ss) = 11-Nov-18  11.00.00    Name of disk plot file, if any, is
Consult the 860-page ATP Rule Book of the Can/Am EMTP User Group in Portland,  Oregon, USA.  Source code date is
Total size of LABCOM tables = 16446853 INTEGER words.  31 VARDIM  List Sizes follow:  6002  10K  192K  900  420K  1200  15K
  120K  2250  3800  720  2K  72800  510  800K  800  90  254  800K  100K  3K  15K  192K  120  45K  260K  600  210K  1100  19  200K
--------------------------------------------------+--------------------------------------------------------------------------------
Descriptive interpretation of input data cards.   |  Input data card images are shown below, all 80 columns, character by character
                                                  0         1         2         3         4         5         6         7         8
                                                  012345678901234567890123456789012345678901234567890123456789012345678901234567890
--------------------------------------------------+--------------------------------------------------------------------------------
Comment card.   KOMPAR > 0.                       |C data:Caso0_ReEnergizacao_Convenc_RPI.atp
Marker card preceding new EMTP data case.         |BEGIN NEW DATA CASE
Comment card.   KOMPAR > 0.                       |C $DUMMY, XYZ000
Misc. data.     1.000E-06   1.000E+00   0.000E+00 |   1.E-6      1.
Misc. data.  500  1  0  0  1  0  0  1  300  0     |     500       1       0       0       1       0       0       1     300
Statistics data.      1    1    0    0    1    0  |       1       1       0       0       1      -1                               0
Series R-L-C.   5.000E+00  7.500E-02  0.000E+00   |  X0001AX0007A                5.   75.                                         0
Series R-L-C.   5.000E+00  7.500E-02  0.000E+00   |  X0001BX0007B                5.   75.                                         0
Series R-L-C.   5.000E+00  7.500E-02  0.000E+00   |  X0001CX0007C                5.   75.                                         0
Series R-L-C.   2.000E+02  0.000E+00  0.000E+00   |  X0007AX0001A              200.                                               0
Series R-L-C.   2.000E+02  0.000E+00  0.000E+00   |  X0007BX0001B              200.                                               0
Series R-L-C.   2.000E+02  0.000E+00  0.000E+00   |  X0007CX0001C              200.                                               0
Series R-L-C.   1.516E+00  1.608E+00  0.000E+00   |  X0003BXX0008            1.5155 1608.                                         0
Series R-L-C.   1.516E+00  1.608E+00  0.000E+00   |  X0003AXX0008            1.5155 1608.                                         0
Series R-L-C.   1.516E+00  1.608E+00  0.000E+00   |  X0003CXX0008            1.5155 1608.                                         0
Series R-L-C.   3.272E-01  3.472E-01  0.000E+00   |  XX0008                   .3272 347.2                                         0
Series R-L-C.   3.000E+01  0.000E+00  0.000E+00   |  XX0009                     30.                                               0
Series R-L-C.   5.000E+02  0.000E+00  0.000E+00   |  X0002AX0010A              500.                                               0
Series R-L-C.   5.000E+02  0.000E+00  0.000E+00   |  X0002BX0010B              500.                                               0
Series R-L-C.   5.000E+02  0.000E+00  0.000E+00   |  X0002CX0010C              500.                                               0
Dynamic $INCLUDE uses fixed RAM cache to delay.   |$INSERT, C:\SimulacaoATP\1\EXT1.pch
J. Marti line, mode  1   parameters begin.        |-1X0010AX0006C                2.  0.00              -2 3
J. Marti line, mode  2   parameters begin.        |-2X0010BX0006A                2.  0.00              -2 3
J. Marti line, mode  3   parameters begin.        |-3X0010CX0006B                2.  0.00              -2 3
TR(1,1 )...  0.667-0.707-0.317                    |  0.66668704 -0.70710678 -0.31743981
TI(1,1 )...  0.000 0.000 0.004                    |  0.00000000  0.00000000  0.00360196
TR(2,1 )...  0.333 0.000 0.894                    |  0.33285412  0.00000000  0.89350256
TI(2,1 )... -0.016 0.000 0.010                    | -0.01627623  0.00000000  0.00954818
TR(3,1 )...  0.667 0.707-0.317                    |  0.66668704  0.70710678 -0.31743981
TI(3,1 )...  0.000 0.000 0.004                    |  0.00000000  0.00000000  0.00360196
Dynamic $INCLUDE uses fixed RAM cache to delay.   |$INSERT, C:\SimulacaoATP\1\CONV2.pch
J. Marti line, mode  1   parameters begin.        |-1X0004AX0005C                2.  0.00              -2 3
J. Marti line, mode  2   parameters begin.        |-2X0004BX0005A                2.  0.00              -2 3
J. Marti line, mode  3   parameters begin.        |-3X0004CX0005B                2.  0.00              -2 3
TR(1,1 )...  0.667-0.707-0.317                    |  0.66668704 -0.70710678 -0.31743981
TI(1,1 )...  0.000 0.000 0.004                    |  0.00000000  0.00000000  0.00360196
TR(2,1 )...  0.333 0.000 0.894                    |  0.33285412  0.00000000  0.89350256
TI(2,1 )... -0.016 0.000 0.010                    | -0.01627623  0.00000000  0.00954818
TR(3,1 )...  0.667 0.707-0.317                    |  0.66668704  0.70710678 -0.31743981
TI(3,1 )...  0.000 0.000 0.004                    |  0.00000000  0.00000000  0.00360196
Dynamic $INCLUDE uses fixed RAM cache to delay.   |$INSERT, C:\SimulacaoATP\1\EXT3.pch
J. Marti line, mode  1   parameters begin.        |-1X0005AX0003A                2.  0.00              -2 3
J. Marti line, mode  2   parameters begin.        |-2X0005BX0003B                2.  0.00              -2 3
J. Marti line, mode  3   parameters begin.        |-3X0005CX0003C                2.  0.00              -2 3
TR(1,1 )...  0.667-0.707-0.317                    |  0.66668704 -0.70710678 -0.31743981
TI(1,1 )...  0.000 0.000 0.004                    |  0.00000000  0.00000000  0.00360196
TR(2,1 )...  0.333 0.000 0.894                    |  0.33285412  0.00000000  0.89350256
TI(2,1 )... -0.016 0.000 0.010                    | -0.01627623  0.00000000  0.00954818
TR(3,1 )...  0.667 0.707-0.317                    |  0.66668704  0.70710678 -0.31743981
TI(3,1 )...  0.000 0.000 0.004                    |  0.00000000  0.00000000  0.00360196
Dynamic $INCLUDE uses fixed RAM cache to delay.   |$INSERT, C:\SimulacaoATP\1\CONV4.pch
J. Marti line, mode  1   parameters begin.        |-1X0006AX0004C                2.  0.00              -2 3
J. Marti line, mode  2   parameters begin.        |-2X0006BX0004A                2.  0.00              -2 3
J. Marti line, mode  3   parameters begin.        |-3X0006CX0004B                2.  0.00              -2 3
TR(1,1 )...  0.667-0.707-0.317                    |  0.66668704 -0.70710678 -0.31743981
TI(1,1 )...  0.000 0.000 0.004                    |  0.00000000  0.00000000  0.00360196
TR(2,1 )...  0.333 0.000 0.894                    |  0.33285412  0.00000000  0.89350256
TI(2,1 )... -0.016 0.000 0.010                    | -0.01627623  0.00000000  0.00954818
TR(3,1 )...  0.667 0.707-0.317                    |  0.66668704  0.70710678 -0.31743981
TI(3,1 )...  0.000 0.000 0.004                    |  0.00000000  0.00000000  0.00360196
Blank card ending branches.  IBR, NTOT = 26  27   |BLANK BRANCH
Switch.   5.50E-02  1.00E-03  0.00E+00  3.33E+03  |  X0001BX0002B      .055      .001               3333.STATISTICS               0
Switch.   5.50E-02  1.00E-03  0.00E+00  3.33E+03  |  X0001AX0002A      .055      .001               3333.STATISTICS               0
Switch.   5.50E-02  1.00E-03  0.00E+00  3.33E+03  |  X0001CX0002C      .055      .001               3333.STATISTICS               0
Switch.   1.00E-02  1.00E-03  0.00E+00  0.00E+00  |  X0003CXX0009       .01      .001                    STATISTICS               1
Switch.   7.00E-01  1.00E-03  0.00E+00  0.00E+00  |  X0001BX0002B        .7      .001                    STATISTICS               0
Switch.   7.00E-01  1.00E-03  0.00E+00  0.00E+00  |  X0001AX0002A        .7      .001                    STATISTICS               0
Switch.   7.00E-01  1.00E-03  0.00E+00  0.00E+00  |  X0001CX0002C        .7      .001                    STATISTICS               0
Switch.   0.00E+00  6.98E-01  0.00E+00  0.00E+00  |  X0002AX0010A                .698                                             0
Switch.   0.00E+00  6.98E-01  0.00E+00  0.00E+00  |  X0002BX0010B                .698                                             0
Switch.   0.00E+00  6.98E-01  0.00E+00  0.00E+00  |  X0002CX0010C                .698                                             0
Switch.   7.10E-01  0.00E+00  0.00E+00  0.00E+00  |  X0002AX0010A       .71                                                       0
Switch.   7.10E-01  0.00E+00  0.00E+00  0.00E+00  |  X0002BX0010B       .71                                                       0
Switch.   7.10E-01  0.00E+00  0.00E+00  0.00E+00  |  X0002CX0010C       .71                                                       0
Blank card ending switches.   KSWTCH = 13.        |BLANK SWITCH
Source.   4.29E+05  6.00E+01  0.00E+00 -1.00E+00  |14X0007A  428660.705       60.                                     -1.      100.
Source.   4.29E+05  6.00E+01 -1.20E+02 -1.00E+00  |14X0007B  428660.705       60.     -120.                           -1.      100.
Source.   4.29E+05  6.00E+01 -2.40E+02 -1.00E+00  |14X0007C  428660.705       60.     -240.                           -1.      100.
Blank card ends electric sources.  KCONST = 3     |BLANK SOURCE

     Total network loss  P-loss  by summing injections =   2.336105973425E+08

Card of names for time-step loop output.          |  X0003AX0003BX0003C
Output voltage differences for pairs of A6 names  |-5X0003BX0003CX0003AX0003BX0003CX0003A
Blank card ending requests for output variables.  |BLANK OUTPUT

Column headings for the  7   EMTP output variables follow.  These are divided among the 5 possible classes as follows ....
  First  6     output variables are electric-network voltage differences (upper voltage minus lower voltage);
  Next   1     output variables are branch currents (flowing from the upper node to the lower node);
   Step      Time      X0003A     X0003B     X0003C     X0003B     X0003A     X0003C     X0003C
                                                        X0003C     X0003B     X0003A     XX0009
 ***      Phasor I(0) =  1.8383093E+02                     Switch  "X0001B"  to  "X0002B"  closed in the steady-state.
 ***      Phasor I(0) =  3.6688631E+02                     Switch  "X0001A"  to  "X0002A"  closed in the steady-state.
 ***      Phasor I(0) = -5.4775143E+02                     Switch  "X0001C"  to  "X0002C"  closed in the steady-state.
 ***                    Switch  "X0002A"  to  "X0010A"  closed  after  0.00000000E+00  sec.
 ***                    Switch  "X0002B"  to  "X0010B"  closed  after  0.00000000E+00  sec.
 ***                    Switch  "X0002C"  to  "X0010C"  closed  after  0.00000000E+00  sec.
      0       0.0  255360.833 -321824.51  66155.376 -387979.89 577185.343 -189205.46        0.0
    500     .5E-3  291935.155 -294524.15 3412.19884 -297936.35 586459.307 -288522.96        0.0
   1000     .1E-2    319361.6 -257270.55 -59841.782 -197428.76 576632.145 -379203.38        0.0
   1500     .0015  334686.229 -210962.48 -120843.62 -90118.865  545648.71 -455529.85        0.0
   2000      .002  522577.884 -37209.818 -547220.98 510011.162 559787.702  -.10698E7        0.0
   2500     .0025  491077.621 135781.704 -641172.61 776954.313 355295.917 -.113225E7        0.0
   3000      .003   417874.79 266263.149 -699207.44 965470.588 151611.641 -.111708E7        0.0
   3500     .0035  314182.721 359989.943 -694312.52 .1054302E7 -45807.222  -.10085E7        0.0
   4000      .004  199040.052  455066.89 -634159.82 .1089227E7 -256026.84 -833199.87        0.0
   4500     .0045  79782.6642 534784.384 -567998.53 .1102783E7 -455001.72 -647781.19        0.0
   5000      .005  -59135.286 585223.753 -484752.51 .1069976E7 -644359.04 -425617.23        0.0
   5500     .0055  -278225.23 572058.079 -262750.29 834808.364 -850283.31  15474.942        0.0
   6000      .006  -427258.68 504878.075 -55920.852 560798.927 -932136.75 371337.825        0.0
   6500     .0065   -512834.7 429076.682 116394.189 312682.493 -941911.38 629228.888        0.0
   7000      .007  -559362.47 353915.276 239637.726  114277.55 -913277.75   799000.2        0.0
   7500     .0075  -572842.45 279496.148 307888.738 -28392.589  -852338.6 880731.193        0.0
   8000      .008   -561626.5 194313.959 352271.521 -157957.56 -755940.46 913898.021        0.0
   8500     .0085  -526233.13 101012.115  383748.28 -282736.16 -627245.24 909981.405        0.0
   9000      .009  -437130.36 17638.3432 363669.383 -346031.04  -454768.7 800799.739        0.0
   9500     .0095  -333683.45 -38071.018 317256.248 -355327.27 -295612.43 650939.697        0.0
  10000       .01  -246135.61 -79189.817  272431.41 -351621.23 -166945.79 518567.016        0.0
 ***                                                             Close switch  "X0003C"  to  "XX0009"  after  1.00010000E-02  sec.
  10500     .0105  -232011.95 -181465.83 23592.4741  -205058.3 -50546.124 255604.425 786.415803
  11000      .011  -176452.62 -230834.14 24732.1426 -255566.28 54381.5167 201184.765 824.404755
  11500     .0115  -127203.78 -289686.19 27728.0315 -317414.22 162482.415 154931.807 924.267718
  12000      .012  -89591.707 -353936.46 33016.9974 -386953.45  264344.75 122608.704 1100.56658
  12500     .0125  -60322.975 -399104.34 37514.4522  -436618.8 338781.369 97837.4276 1250.48174
  13000      .013  -23573.247 -444252.85 41048.0315 -485300.88 420679.601 64621.2789 1368.26772
  13500     .0135   -28561.29 -503606.16 45450.7823 -549056.94 475044.868  74012.072 1515.02608
  14000      .014  -31428.894 -596273.72 55519.8827 -651793.61  564844.83 86948.7769 1850.66276
  14500     .0145  77952.1804 -576256.97 62213.6907 -638470.66 654209.146  -15738.49 2073.78969
  15000      .015  186180.324  -526065.2 62741.2014  -588806.4 712245.521 -123439.12 2091.37338
  15500     .0155  282025.922 -460218.48 57296.0584 -517514.54 742244.405 -224729.86 1909.86861
  16000      .016  380336.968 -379610.55 49131.5037 -428742.06 759947.521 -331205.46 1637.71679
  16500     .0165  475290.912 -278390.25 39775.9186 -318166.17 753681.159 -435514.99 1325.86395
  17000      .017  561280.714   -153077. 28412.8579 -181489.86 714357.714 -532867.86 947.095262
  17500     .0175  618023.588 -16466.787 16521.0172 -32987.805 634490.376 -601502.57 550.700572
  18000      .018  637257.493  129280.44 8599.84932 120680.591 507977.053 -628657.64 286.661644
  18500     .0185  623803.081 267698.489 3198.85831  264499.63 356104.592 -620604.22  106.62861
  19000      .019  574301.163 382275.931 -4040.0773 386316.008 192025.232 -578341.24 -134.66924
  19500     .0195  491979.232 473792.147 -12632.197 486424.344 18187.0848 -504611.43 -421.07322
  20000       .02  380341.924 540403.047 -21606.495 562009.541 -160061.12 -401948.42 -720.21649
  20500     .0205  250786.243 580575.626 -30331.348 610906.974 -329789.38 -281117.59 -1011.0449
  21000      .021  114298.854 593706.768 -38674.095 632380.864 -479407.91 -152972.95 -1289.1365
  21500     .0215  -26909.057 573303.821 -45775.154 619078.975 -600212.88 -18866.097 -1525.8385
  22000      .022  -163805.13 524668.921 -50154.991 574823.913 -688474.05 113650.136  -1671.833
  22500     .0225  -280637.07 464856.839 -51830.822 516687.662 -745493.91 228806.244 -1727.6941
  23000      .023  -371630.73 401902.112 -51295.794 453197.906 -773532.84 320334.933 -1709.8598
  23500     .0235   -437550.7 335162.969 -49141.561 384304.529 -772713.66 388409.135  -1638.052
  24000      .024  -480905.55 264225.247 -45502.342 309727.589 -745130.79 435403.204 -1516.7447
  24500     .0245  -503800.62 190751.318 -40425.188 231176.506 -694551.94 463375.431 -1347.5063
  25000      .025  -508335.27 117253.963 -34256.106 151510.069 -625589.23 474079.159 -1141.8702
  25500     .0255  -498962.56 43467.5974 -27071.449 70539.0464 -542430.16 471891.112 -902.38163
  26000      .026  -478403.19 -31232.828 -18433.477 -12799.351 -447170.36 459969.715 -614.44923
  26500     .0265  -448621.84 -108058.22 -8274.5733 -99783.646 -340563.62 440347.267 -275.81911
  27000      .027  -411582.16 -187620.93 2750.95211 -190371.88 -223961.23  414333.11 91.6984037
  27500     .0275  -367792.28 -268438.64 13842.6729 -282281.32 -99353.639 381634.957  461.42243
  28000      .028  -316495.31 -347490.44 24393.1261 -371883.57 30995.1328 340888.437 813.104203
  28500     .0285  -256113.51 -420589.01 33926.0875  -454515.1 164475.502 290039.594 1130.86958
  29000      .029  -185592.55 -483398.78 41975.7256  -525374.5 297806.226 227568.275 1399.19085
  29500     .0295  -106102.89 -532450.03 48251.9967 -580702.03 426347.143 154354.883 1608.39989
  30000       .03  -19375.141 -563917.61 52721.3167 -616638.92 544542.466 72096.4573 1757.37722
  30500     .0305  73383.8183 -573272.79 55417.3018 -628690.09  646656.61 -17966.517 1847.24339
  31000      .031  170297.154  -556868.5 56346.7357 -613215.24 727165.657 -113950.42 1878.22452
  31500     .0315   267533.82 -513623.99 55487.0551 -569111.04 781157.806 -212046.76  1849.5685
  32000      .032  359748.659 -445219.23 52848.9221 -498068.15  804967.89 -306899.74 1761.63074
  32500     .0325  441407.925 -355226.77 48488.4295  -403715.2 796634.697  -392919.5 1616.28098
  33000      .033   507576.41 -248520.69 42474.7605 -290995.45 756097.101 -465101.65 1415.82535
  33500     .0335  554052.025 -131068.12  34960.761 -166028.89 685120.149 -519091.26  1165.3587
  34000      .034  577691.703 -9391.9483 26256.6043 -35648.553 587083.651  -551435.1 875.220144
  34500     .0345  576635.753 109924.771  16765.579 93159.1916 466710.982 -559870.17 558.852634
  35000      .035  550561.879 220772.891 6866.61578 213906.275 329788.988 -543695.26 228.887193
  35500     .0355  500832.835 318153.958 -3118.8619  321272.82 182678.877  -503951.7 -103.96206
  36000      .036  430344.004 398602.418 -12891.878 411494.296 31741.5866 -443235.88 -429.72927
  36500     .0365   343189.16 460271.992 -22161.271 482433.263 -117082.83 -365350.43 -738.70905
  37000      .037   244096.11 502616.673 -30659.011 533275.684 -258520.56 -274755.12  -1021.967
  37500     .0375  137856.188 525925.373  -38132.58 564057.953 -388069.18 -175988.77  -1271.086
  38000      .038  29117.2803 531108.239 -44326.092 575434.331 -501990.96 -73443.373 -1477.5364
  38500     .0385  -77669.866 519643.891 -48987.527 568631.419 -597313.76 28682.3384 -1632.9176
  39000      .039  -178446.54 493366.804 -51898.052 545264.856 -671813.34 126548.487 -1729.9351
  39500     .0395  -269843.45 454048.853 -52901.518 506950.371  -723892.3  216941.93 -1763.3839
  40000       .04  -349324.76 403086.648 -51920.551 455007.199 -752411.41 297404.211  -1730.685
  40500     .0405  -415080.93 341509.302 -48967.058  390476.36 -756590.23 366113.867 -1632.2353
  41000      .041  -465857.19 270186.628 -44149.639 314336.267 -736043.82 421707.551 -1471.6546
  41500     .0415  -500845.71 190072.937 -37662.493  227735.43 -690918.65 463183.217 -1255.4164
  42000      .042  -519609.34 102420.061 -29758.978 132179.038  -622029.4 489850.363 -991.96592
  % % % % % %   Suspended simulation;  plot data space exhausted;  SPY SPACE is required.   LIMBUF =  340000.
  % % % % % %   Suspended simulation;  plot data space exhausted;  SPY SPACE is required.   LIMBUF =  340000.
  +++  Time-sharing disabled.   Send  user-keyed interrupt to silence alarm.
