   ---   55   cards of disk file read into card cache cells  1   onward.
 <===> Done with  "/"-card sorting by data class.    Remember that the source file appears different from interpreted input data.
Alternative Transients Program (ATP),  F77 GNU Linux or DOS.  All rights reserved by Can/Am user group of Portland, Oregon, USA.
 Date (dd-mth-yy) and time of day (hh.mm.ss) = 11-Nov-18  11.00.00    Name of disk plot file, if any, is
Consult the 860-page ATP Rule Book of the Can/Am EMTP User Group in Portland,  Oregon, USA.  Source code date is
Total size of LABCOM tables = 16446853 INTEGER words.  31 VARDIM  List Sizes follow:  6002  10K  192K  900  420K  1200  15K
  120K  2250  3800  720  2K  72800  510  800K  800  90  254  800K  100K  3K  15K  192K  120  45K  260K  600  210K  1100  19  200K
--------------------------------------------------+--------------------------------------------------------------------------------
Descriptive interpretation of input data cards.   |  Input data card images are shown below, all 80 columns, character by character
                                                  0         1         2         3         4         5         6         7         8
                                                  012345678901234567890123456789012345678901234567890123456789012345678901234567890
--------------------------------------------------+--------------------------------------------------------------------------------
Comment card.   KOMPAR > 0.                       |C data:Caso0_ReEnergizacao_Convenc_RPI.atp
Marker card preceding new EMTP data case.         |BEGIN NEW DATA CASE
Comment card.   KOMPAR > 0.                       |C $DUMMY, XYZ000
Misc. data.     1.000E-06   1.000E+00   0.000E+00 |   1.E-6      1.
Misc. data.  500  1  0  0  1  0  0  1  300  0     |     500       1       0       0       1       0       0       1     300
Statistics data.      1    1    0    0    1    0  |       1       1       0       0       1      -1                               0
Series R-L-C.   5.000E+00  7.500E-02  0.000E+00   |  X0001AX0007A                5.   75.                                         0
Series R-L-C.   5.000E+00  7.500E-02  0.000E+00   |  X0001BX0007B                5.   75.                                         0
Series R-L-C.   5.000E+00  7.500E-02  0.000E+00   |  X0001CX0007C                5.   75.                                         0
Series R-L-C.   2.000E+02  0.000E+00  0.000E+00   |  X0007AX0001A              200.                                               0
Series R-L-C.   2.000E+02  0.000E+00  0.000E+00   |  X0007BX0001B              200.                                               0
Series R-L-C.   2.000E+02  0.000E+00  0.000E+00   |  X0007CX0001C              200.                                               0
Series R-L-C.   1.516E+00  1.608E+00  0.000E+00   |  X0003BXX0008            1.5155 1608.                                         0
Series R-L-C.   1.516E+00  1.608E+00  0.000E+00   |  X0003AXX0008            1.5155 1608.                                         0
Series R-L-C.   1.516E+00  1.608E+00  0.000E+00   |  X0003CXX0008            1.5155 1608.                                         0
Series R-L-C.   3.272E-01  3.472E-01  0.000E+00   |  XX0008                   .3272 347.2                                         0
Series R-L-C.   3.000E+01  0.000E+00  0.000E+00   |  XX0009                     30.                                               0
Series R-L-C.   7.000E+02  0.000E+00  0.000E+00   |  X0002AX0010A              700.                                               0
Series R-L-C.   7.000E+02  0.000E+00  0.000E+00   |  X0002BX0010B              700.                                               0
Series R-L-C.   7.000E+02  0.000E+00  0.000E+00   |  X0002CX0010C              700.                                               0
Dynamic $INCLUDE uses fixed RAM cache to delay.   |$INSERT, C:\SimulacaoATP\3\EXT1.pch
J. Marti line, mode  1   parameters begin.        |-1X0010AX0006C                2.  0.00              -2 3
J. Marti line, mode  2   parameters begin.        |-2X0010BX0006A                2.  0.00              -2 3
J. Marti line, mode  3   parameters begin.        |-3X0010CX0006B                2.  0.00              -2 3
TR(1,1 )...  0.667-0.707-0.317                    |  0.66668704 -0.70710678 -0.31743981
TI(1,1 )...  0.000 0.000 0.004                    |  0.00000000  0.00000000  0.00360196
TR(2,1 )...  0.333 0.000 0.894                    |  0.33285412  0.00000000  0.89350256
TI(2,1 )... -0.016 0.000 0.010                    | -0.01627623  0.00000000  0.00954818
TR(3,1 )...  0.667 0.707-0.317                    |  0.66668704  0.70710678 -0.31743981
TI(3,1 )...  0.000 0.000 0.004                    |  0.00000000  0.00000000  0.00360196
Dynamic $INCLUDE uses fixed RAM cache to delay.   |$INSERT, C:\SimulacaoATP\3\CONV2.pch
J. Marti line, mode  1   parameters begin.        |-1X0004AX0005C                2.  0.00              -2 3
J. Marti line, mode  2   parameters begin.        |-2X0004BX0005A                2.  0.00              -2 3
J. Marti line, mode  3   parameters begin.        |-3X0004CX0005B                2.  0.00              -2 3
TR(1,1 )...  0.667-0.707-0.317                    |  0.66668704 -0.70710678 -0.31743981
TI(1,1 )...  0.000 0.000 0.004                    |  0.00000000  0.00000000  0.00360196
TR(2,1 )...  0.333 0.000 0.894                    |  0.33285412  0.00000000  0.89350256
TI(2,1 )... -0.016 0.000 0.010                    | -0.01627623  0.00000000  0.00954818
TR(3,1 )...  0.667 0.707-0.317                    |  0.66668704  0.70710678 -0.31743981
TI(3,1 )...  0.000 0.000 0.004                    |  0.00000000  0.00000000  0.00360196
Dynamic $INCLUDE uses fixed RAM cache to delay.   |$INSERT, C:\SimulacaoATP\3\EXT3.pch
J. Marti line, mode  1   parameters begin.        |-1X0005AX0003A                2.  0.00              -2 3
J. Marti line, mode  2   parameters begin.        |-2X0005BX0003B                2.  0.00              -2 3
J. Marti line, mode  3   parameters begin.        |-3X0005CX0003C                2.  0.00              -2 3
TR(1,1 )...  0.667-0.707-0.317                    |  0.66668704 -0.70710678 -0.31743981
TI(1,1 )...  0.000 0.000 0.004                    |  0.00000000  0.00000000  0.00360196
TR(2,1 )...  0.333 0.000 0.894                    |  0.33285412  0.00000000  0.89350256
TI(2,1 )... -0.016 0.000 0.010                    | -0.01627623  0.00000000  0.00954818
TR(3,1 )...  0.667 0.707-0.317                    |  0.66668704  0.70710678 -0.31743981
TI(3,1 )...  0.000 0.000 0.004                    |  0.00000000  0.00000000  0.00360196
Dynamic $INCLUDE uses fixed RAM cache to delay.   |$INSERT, C:\SimulacaoATP\3\CONV4.pch
J. Marti line, mode  1   parameters begin.        |-1X0006AX0004C                2.  0.00              -2 3
J. Marti line, mode  2   parameters begin.        |-2X0006BX0004A                2.  0.00              -2 3
J. Marti line, mode  3   parameters begin.        |-3X0006CX0004B                2.  0.00              -2 3
TR(1,1 )...  0.667-0.707-0.317                    |  0.66668704 -0.70710678 -0.31743981
TI(1,1 )...  0.000 0.000 0.004                    |  0.00000000  0.00000000  0.00360196
TR(2,1 )...  0.333 0.000 0.894                    |  0.33285412  0.00000000  0.89350256
TI(2,1 )... -0.016 0.000 0.010                    | -0.01627623  0.00000000  0.00954818
TR(3,1 )...  0.667 0.707-0.317                    |  0.66668704  0.70710678 -0.31743981
TI(3,1 )...  0.000 0.000 0.004                    |  0.00000000  0.00000000  0.00360196
Blank card ending branches.  IBR, NTOT = 26  27   |BLANK BRANCH
Switch.   5.50E-02  1.00E-03  0.00E+00  3.33E+03  |  X0001BX0002B      .055      .001               3333.STATISTICS               0
Switch.   5.50E-02  1.00E-03  0.00E+00  3.33E+03  |  X0001AX0002A      .055      .001               3333.STATISTICS               0
Switch.   5.50E-02  1.00E-03  0.00E+00  3.33E+03  |  X0001CX0002C      .055      .001               3333.STATISTICS               0
Switch.   1.00E-02  1.00E-03  0.00E+00  0.00E+00  |  X0003CXX0009       .01      .001                    STATISTICS               1
Switch.   7.00E-01  1.00E-03  0.00E+00  0.00E+00  |  X0001BX0002B        .7      .001                    STATISTICS               0
Switch.   7.00E-01  1.00E-03  0.00E+00  0.00E+00  |  X0001AX0002A        .7      .001                    STATISTICS               0
Switch.   7.00E-01  1.00E-03  0.00E+00  0.00E+00  |  X0001CX0002C        .7      .001                    STATISTICS               0
Switch.   0.00E+00  6.98E-01  0.00E+00  0.00E+00  |  X0002AX0010A                .698                                             0
Switch.   0.00E+00  6.98E-01  0.00E+00  0.00E+00  |  X0002BX0010B                .698                                             0
Switch.   0.00E+00  6.98E-01  0.00E+00  0.00E+00  |  X0002CX0010C                .698                                             0
Switch.   7.10E-01  0.00E+00  0.00E+00  0.00E+00  |  X0002AX0010A       .71                                                       0
Switch.   7.10E-01  0.00E+00  0.00E+00  0.00E+00  |  X0002BX0010B       .71                                                       0
Switch.   7.10E-01  0.00E+00  0.00E+00  0.00E+00  |  X0002CX0010C       .71                                                       0
Blank card ending switches.   KSWTCH = 13.        |BLANK SWITCH
Source.   4.29E+05  6.00E+01  0.00E+00 -1.00E+00  |14X0007A  428660.705       60.                                     -1.      100.
Source.   4.29E+05  6.00E+01 -1.20E+02 -1.00E+00  |14X0007B  428660.705       60.     -120.                           -1.      100.
Source.   4.29E+05  6.00E+01 -2.40E+02 -1.00E+00  |14X0007C  428660.705       60.     -240.                           -1.      100.
Blank card ends electric sources.  KCONST = 3     |BLANK SOURCE

     Total network loss  P-loss  by summing injections =   2.320134233740E+08

Card of names for time-step loop output.          |  X0003AX0003BX0003C
Output voltage differences for pairs of A6 names  |-5X0003BX0003CX0003AX0003BX0003CX0003A
Blank card ending requests for output variables.  |BLANK OUTPUT

Column headings for the  7   EMTP output variables follow.  These are divided among the 5 possible classes as follows ....
  First  6     output variables are electric-network voltage differences (upper voltage minus lower voltage);
  Next   1     output variables are branch currents (flowing from the upper node to the lower node);
   Step      Time      X0003A     X0003B     X0003C     X0003B     X0003A     X0003C     X0003C
                                                        X0003C     X0003B     X0003A     XX0009
 ***      Phasor I(0) =  8.0590460E+01                     Switch  "X0001B"  to  "X0002B"  closed in the steady-state.
 ***      Phasor I(0) =  3.6324188E+02                     Switch  "X0001A"  to  "X0002A"  closed in the steady-state.
 ***      Phasor I(0) = -4.4055589E+02                     Switch  "X0001C"  to  "X0002C"  closed in the steady-state.
 ***                    Switch  "X0002A"  to  "X0010A"  closed  after  0.00000000E+00  sec.
 ***                    Switch  "X0002B"  to  "X0010B"  closed  after  0.00000000E+00  sec.
 ***                    Switch  "X0002C"  to  "X0010C"  closed  after  0.00000000E+00  sec.
      0       0.0  180670.727 -283866.12 100903.238 -384769.36  464536.85 -79767.489        0.0
    500     .5E-3  218426.509 -269180.87 49697.5646 -318878.44 487607.383 -168728.94        0.0
   1000     .1E-2  249320.151 -245350.25 -3724.1965 -241626.05 494670.401 -253044.35        0.0
   1500     .0015  270594.247 -212972.11 -56867.822 -156104.29 483566.357 -327462.07        0.0
   2000      .002  554071.947 -89354.386 -530812.68 441458.295 643426.333 -.108488E7        0.0
   2500     .0025  538721.208 78646.4223 -640927.36 719573.778 460074.786 -.117965E7        0.0
   3000      .003  474454.298 214499.827 -716114.71  930614.54 259954.471 -.119057E7        0.0
   3500     .0035  378017.738 315802.166 -725118.23  .104092E7 62215.5714 -.110314E7        0.0
   4000      .004  265029.781 423603.561 -671363.85 .1094967E7 -158573.78 -936393.63        0.0
   4500     .0045  142506.543  519699.91 -610427.34 .1130127E7 -377193.37 -752933.88        0.0
   5000      .005   -5798.359 585437.569 -529132.21  .111457E7 -591235.93 -523333.85        0.0
   5500     .0055  -267932.51 596295.833 -287055.43 883351.259 -864228.34 -19122.916        0.0
   6000      .006  -451081.18 542209.696 -64478.941 606688.636 -993290.88 386602.239        0.0
   6500     .0065  -553501.02 470616.336 124742.041 345874.296 -.102412E7 678243.063        0.0
   7000      .007  -608609.86 393248.339 263760.927 129487.412 -.100186E7 872370.786        0.0
   7500     .0075  -626996.15 312064.387  341596.27 -29531.883 -939060.53 968592.417        0.0
   8000      .008  -615146.27 215103.106 390320.917 -175217.81 -830249.38 .1005467E7        0.0
   8500     .0085  -571994.86  106519.06  422250.91 -315731.85 -678513.92  994245.77        0.0
   9000      .009  -462162.15 6320.00252 391122.846 -384802.84 -468482.15 853284.996        0.0
   9500     .0095  -332565.66 -64233.938 330168.151 -394402.09 -268331.72  662733.81        0.0
  10000       .01  -224370.78 -113424.89 271228.114 -384653.01 -110945.89 495598.898        0.0
 ***                                                             Close switch  "X0003C"  to  "XX0009"  after  1.00010000E-02  sec.
  10500     .0105  -192892.96 -212899.96 22248.0305 -235147.99 20006.9968 215140.995 741.601018
  11000      .011  -126770.67   -256688. 22351.1166 -279039.12 129917.328 149121.789 745.037219
  11500     .0115  -74282.457 -306931.24 24662.3104 -331593.56 232648.788 98944.7677 822.077013
  12000      .012   -40676.61 -359229.48 29601.4167  -388830.9 318552.873 70278.0267  986.71389
  12500     .0125  -24576.657 -392201.54 34360.2356 -426561.78 367624.885 58936.8926 1145.34119
  13000      .013  -8748.7518 -426826.81 38740.9072 -465567.72 418078.062 47489.6591 1291.36357
  13500     .0135  -35031.288 -479394.32 44269.3982 -523663.71 444363.027 79300.6861 1475.64661
  14000      .014  -52452.105 -567976.06 55149.9549 -623126.01 515523.952  107602.06 1838.33183
  14500     .0145  46941.1494  -548087.6  62148.888 -610236.49  595028.75 15207.7385  2071.6296
  15000      .015  148373.944 -504059.12 62437.0264 -566496.14  652433.06 -85936.918 2081.23421
  15500     .0155  243054.859 -448492.92 56533.3571 -505026.28 691547.782  -186521.5 1884.44524
  16000      .016  346368.306 -380363.15 47868.4611 -428231.61 726731.451 -298499.84 1595.61537
  16500     .0165  451644.517 -291937.33 38101.1422 -330038.47 743581.843 -413543.37 1270.03807
  17000      .017  551220.797 -176900.29 26620.8311 -203521.12 728121.085 -524599.97 887.361037
  17500     .0175  621648.145 -45882.382 14986.2297 -60868.611 667530.527 -606661.92 499.540989
  18000      .018  652859.506 99528.7944 7489.82813 92038.9662 553330.712 -645369.68 249.660938
  18500     .0185  648273.435 242141.747 2364.27061 239777.477 406131.687 -645909.16 78.8090205
  19000      .019  603367.719 364665.916 -4776.5196 369442.435 238701.803 -608144.24 -159.21732
  19500     .0195   520721.93 466649.614 -13382.055 480031.669 54072.3165 -534103.99 -446.06851
  20000       .02  404047.793 544582.697 -22431.778 567014.476  -140534.9 -426479.57 -747.72594
  20500     .0205  265682.253 594835.709 -31225.609 626061.318 -329153.46 -296907.86 -1040.8536
  21000      .021  118328.214 614769.496 -39550.756 654320.252 -496441.28 -157878.97 -1318.3585
  21500     .0215  -33674.007 596929.324 -46499.315 643428.639 -630603.33 -12825.308 -1549.9772
  22000      .022  -179318.66 546925.028 -50639.766 597564.794 -726243.69 128678.895 -1687.9922
  22500     .0225  -301718.06 482355.243 -52091.468 534446.711  -784073.3 249626.588 -1736.3823
  23000      .023  -394639.02 411864.141 -51427.961 463292.103 -806503.16  343211.06 -1714.2654
  23500     .0235  -458805.09 335916.212 -49267.323 385183.535  -794721.3 409537.769 -1642.2441
  24000      .024  -497212.61 255622.956 -45730.934  301353.89 -752835.57 451481.677 -1524.3645
  24500     .0245  -513039.36  174273.61 -40827.266 215100.876 -687312.97  472212.09 -1360.9089
  25000      .025  -509770.37 95725.4416 -34836.481 130561.922 -605495.81 474933.891  -1161.216
  25500     .0255  -493137.79 20459.8863 -27761.848  48221.734 -513597.67 465375.939 -925.39492
  26000      .026  -466856.76 -52063.514 -19133.347 -32930.167 -414793.25 447723.416 -637.77822
  26500     .0265  -433640.84 -123568.11 -8904.4599 -114663.66 -310072.72 424736.379 -296.81533
  27000      .027  -395847.09 -195622.28 2231.63634 -197853.92 -200224.81  398078.73 74.3878779
  27500     .0275  -353918.09 -268007.51 13441.6969 -281449.21 -85910.581  367359.79 448.056563
  28000      .028  -306585.43 -339114.84 24093.7532 -363208.59 32529.4091 330679.182 803.125108
  28500     .0285  -251458.02 -406098.66 33699.0221 -439797.68 154640.643 285157.039 1123.30074
  29000      .029  -186579.58 -465630.96  41795.798 -507426.76 279051.389 228375.373 1393.19327
  29500     .0295  -112238.14  -514679.1 48109.2359 -562788.34 402440.963 160347.375  1603.6412
  30000       .03  -29365.542 -549224.49 52616.3778 -601840.86 519858.943 81981.9201 1753.87926
  30500     .0305  61395.6101 -564049.97 55349.5076 -619399.48 625445.578 -6046.1025 1844.98359
  31000      .031  158366.098 -554508.49 56306.3348 -610814.82 712874.584 -102059.76 1876.87783
  31500     .0315  257533.738 -518360.47 55454.3681 -573814.84 775894.212 -202079.37 1848.47894
  32000      .032  353069.304 -456127.17 52797.7854 -508924.96 809196.479 -300271.52 1759.92618
  32500     .0325  438773.826 -370409.48 48392.3001 -418801.78  809183.31 -390381.53 1613.07667
  33000      .033  508998.406 -265464.77 42316.5368 -307781.31 774463.179 -466681.87 1410.55123
  33500     .0335  558895.579 -147084.25  34742.539 -181826.79 705979.828 -524153.04 1158.08463
  34000      .034  584831.275 -22058.361 26000.9612 -48059.322 606889.636 -558830.31 866.698707
  34500     .0345   584670.44 102381.376 16507.1578 85874.2187 482289.064 -568163.28 550.238592
  35000      .035   558066.99 219218.917 6640.85313 212578.064 338848.073 -551426.14 221.361771
  35500     .0355   506603.38 322449.645 -3284.3946  325734.04 184153.735 -509887.77 -109.47982
  36000      .036  433577.786 407668.435 -12982.576 420651.011  25909.351 -446560.36 -432.75252
  36500     .0365  343573.212 472301.883 -22177.072 494478.956 -128728.67 -365750.28 -739.23575
  37000      .037  241797.027 515394.959  -30612.04 546006.998 -273597.93 -272409.07 -1020.4013
  37500     .0375  133445.221  537203.87 -38041.868 575245.738 -403758.65 -171487.09 -1268.0623
  38000      .038  23452.3773  538981.73 -44212.111 583193.842 -515529.35 -67664.489  -1473.737
  38500     .0385  -83598.272 522855.773 -48868.494 571724.266 -606454.04 34729.7785 -1628.9498
  39000      .039  -183688.96  491488.09 -51788.185 543276.275 -675177.05 131900.776 -1726.2728
  39500     .0395  -273649.13 447506.833 -52810.662 500317.494 -721155.96  220838.47 -1760.3554
  40000       .04  -351249.53 393050.772 -51854.588  444905.36  -744300.3 299394.945 -1728.4863
  40500     .0405  -415029.93 329662.913 -48928.493 378591.405 -744692.84 366101.439 -1630.9498
  41000      .041  -464066.41 258427.589 -44137.501  302565.09   -722494. 419928.907   -1471.25
  41500     .0415  -497813.24 180194.543 -37671.503 217866.046 -678007.78 460141.736 -1255.7168
  42000      .042  -515990.39 95823.5866  -29779.08 125602.666 -611813.98 486211.309 -992.63599
  % % % % % %   Suspended simulation;  plot data space exhausted;  SPY SPACE is required.   LIMBUF =  340000.
  % % % % % %   Suspended simulation;  plot data space exhausted;  SPY SPACE is required.   LIMBUF =  340000.
  +++  Time-sharing disabled.   Send  user-keyed interrupt to silence alarm.
