   ---   55   cards of disk file read into card cache cells  1   onward.
 <===> Done with  "/"-card sorting by data class.    Remember that the source file appears different from interpreted input data.
Alternative Transients Program (ATP),  F77 GNU Linux or DOS.  All rights reserved by Can/Am user group of Portland, Oregon, USA.
 Date (dd-mth-yy) and time of day (hh.mm.ss) = 11-Nov-18  11.00.00    Name of disk plot file, if any, is
Consult the 860-page ATP Rule Book of the Can/Am EMTP User Group in Portland,  Oregon, USA.  Source code date is
Total size of LABCOM tables = 16446853 INTEGER words.  31 VARDIM  List Sizes follow:  6002  10K  192K  900  420K  1200  15K
  120K  2250  3800  720  2K  72800  510  800K  800  90  254  800K  100K  3K  15K  192K  120  45K  260K  600  210K  1100  19  200K
--------------------------------------------------+--------------------------------------------------------------------------------
Descriptive interpretation of input data cards.   |  Input data card images are shown below, all 80 columns, character by character
                                                  0         1         2         3         4         5         6         7         8
                                                  012345678901234567890123456789012345678901234567890123456789012345678901234567890
--------------------------------------------------+--------------------------------------------------------------------------------
Comment card.   KOMPAR > 0.                       |C data:Caso0_ReEnergizacao_Convenc_RPI.atp
Marker card preceding new EMTP data case.         |BEGIN NEW DATA CASE
Comment card.   KOMPAR > 0.                       |C $DUMMY, XYZ000
Misc. data.     1.000E-06   1.000E+00   0.000E+00 |   1.E-6      1.
Misc. data.  500  1  0  0  1  0  0  1  300  0     |     500       1       0       0       1       0       0       1     300
Statistics data.      1    1    0    0    1    0  |       1       1       0       0       1      -1                               0
Series R-L-C.   5.000E+00  7.500E-02  0.000E+00   |  X0001AX0007A                5.   75.                                         0
Series R-L-C.   5.000E+00  7.500E-02  0.000E+00   |  X0001BX0007B                5.   75.                                         0
Series R-L-C.   5.000E+00  7.500E-02  0.000E+00   |  X0001CX0007C                5.   75.                                         0
Series R-L-C.   2.000E+02  0.000E+00  0.000E+00   |  X0007AX0001A              200.                                               0
Series R-L-C.   2.000E+02  0.000E+00  0.000E+00   |  X0007BX0001B              200.                                               0
Series R-L-C.   2.000E+02  0.000E+00  0.000E+00   |  X0007CX0001C              200.                                               0
Series R-L-C.   1.516E+00  1.608E+00  0.000E+00   |  X0003BXX0008            1.5155 1608.                                         0
Series R-L-C.   1.516E+00  1.608E+00  0.000E+00   |  X0003AXX0008            1.5155 1608.                                         0
Series R-L-C.   1.516E+00  1.608E+00  0.000E+00   |  X0003CXX0008            1.5155 1608.                                         0
Series R-L-C.   3.272E-01  3.472E-01  0.000E+00   |  XX0008                   .3272 347.2                                         0
Series R-L-C.   3.000E+01  0.000E+00  0.000E+00   |  XX0009                     30.                                               0
Series R-L-C.   4.000E+02  0.000E+00  0.000E+00   |  X0002AX0010A              400.                                               0
Series R-L-C.   4.000E+02  0.000E+00  0.000E+00   |  X0002BX0010B              400.                                               0
Series R-L-C.   4.000E+02  0.000E+00  0.000E+00   |  X0002CX0010C              400.                                               0
Dynamic $INCLUDE uses fixed RAM cache to delay.   |$INSERT, C:\SimulacaoATP\EXT1.pch
J. Marti line, mode  1   parameters begin.        |-1X0010AX0006C                2.  0.00              -2 3
J. Marti line, mode  2   parameters begin.        |-2X0010BX0006A                2.  0.00              -2 3
J. Marti line, mode  3   parameters begin.        |-3X0010CX0006B                2.  0.00              -2 3
TR(1,1 )...  0.667-0.707-0.317                    |  0.66668704 -0.70710678 -0.31743981
TI(1,1 )...  0.000 0.000 0.004                    |  0.00000000  0.00000000  0.00360196
TR(2,1 )...  0.333 0.000 0.894                    |  0.33285412  0.00000000  0.89350256
TI(2,1 )... -0.016 0.000 0.010                    | -0.01627623  0.00000000  0.00954818
TR(3,1 )...  0.667 0.707-0.317                    |  0.66668704  0.70710678 -0.31743981
TI(3,1 )...  0.000 0.000 0.004                    |  0.00000000  0.00000000  0.00360196
Dynamic $INCLUDE uses fixed RAM cache to delay.   |$INSERT, C:\SimulacaoATP\CONV2.pch
J. Marti line, mode  1   parameters begin.        |-1X0004AX0005C                2.  0.00              -2 3
J. Marti line, mode  2   parameters begin.        |-2X0004BX0005A                2.  0.00              -2 3
J. Marti line, mode  3   parameters begin.        |-3X0004CX0005B                2.  0.00              -2 3
TR(1,1 )...  0.667-0.707-0.317                    |  0.66668704 -0.70710678 -0.31743981
TI(1,1 )...  0.000 0.000 0.004                    |  0.00000000  0.00000000  0.00360196
TR(2,1 )...  0.333 0.000 0.894                    |  0.33285412  0.00000000  0.89350256
TI(2,1 )... -0.016 0.000 0.010                    | -0.01627623  0.00000000  0.00954818
TR(3,1 )...  0.667 0.707-0.317                    |  0.66668704  0.70710678 -0.31743981
TI(3,1 )...  0.000 0.000 0.004                    |  0.00000000  0.00000000  0.00360196
Dynamic $INCLUDE uses fixed RAM cache to delay.   |$INSERT, C:\SimulacaoATP\EXT3.pch
J. Marti line, mode  1   parameters begin.        |-1X0005AX0003A                2.  0.00              -2 3
J. Marti line, mode  2   parameters begin.        |-2X0005BX0003B                2.  0.00              -2 3
J. Marti line, mode  3   parameters begin.        |-3X0005CX0003C                2.  0.00              -2 3
TR(1,1 )...  0.667-0.707-0.317                    |  0.66668704 -0.70710678 -0.31743981
TI(1,1 )...  0.000 0.000 0.004                    |  0.00000000  0.00000000  0.00360196
TR(2,1 )...  0.333 0.000 0.894                    |  0.33285412  0.00000000  0.89350256
TI(2,1 )... -0.016 0.000 0.010                    | -0.01627623  0.00000000  0.00954818
TR(3,1 )...  0.667 0.707-0.317                    |  0.66668704  0.70710678 -0.31743981
TI(3,1 )...  0.000 0.000 0.004                    |  0.00000000  0.00000000  0.00360196
Dynamic $INCLUDE uses fixed RAM cache to delay.   |$INSERT, C:\SimulacaoATP\CONV4.pch
J. Marti line, mode  1   parameters begin.        |-1X0006AX0004C                2.  0.00              -2 3
J. Marti line, mode  2   parameters begin.        |-2X0006BX0004A                2.  0.00              -2 3
J. Marti line, mode  3   parameters begin.        |-3X0006CX0004B                2.  0.00              -2 3
TR(1,1 )...  0.667-0.707-0.317                    |  0.66668704 -0.70710678 -0.31743981
TI(1,1 )...  0.000 0.000 0.004                    |  0.00000000  0.00000000  0.00360196
TR(2,1 )...  0.333 0.000 0.894                    |  0.33285412  0.00000000  0.89350256
TI(2,1 )... -0.016 0.000 0.010                    | -0.01627623  0.00000000  0.00954818
TR(3,1 )...  0.667 0.707-0.317                    |  0.66668704  0.70710678 -0.31743981
TI(3,1 )...  0.000 0.000 0.004                    |  0.00000000  0.00000000  0.00360196
Blank card ending branches.  IBR, NTOT = 26  27   |BLANK BRANCH
Switch.   5.50E-02  1.00E-03  0.00E+00  3.33E+03  |  X0001BX0002B      .055      .001               3333.STATISTICS               0
Switch.   5.50E-02  1.00E-03  0.00E+00  3.33E+03  |  X0001AX0002A      .055      .001               3333.STATISTICS               0
Switch.   5.50E-02  1.00E-03  0.00E+00  3.33E+03  |  X0001CX0002C      .055      .001               3333.STATISTICS               0
Switch.   1.00E-02  1.00E-03  0.00E+00  0.00E+00  |  X0003CXX0009       .01      .001                    STATISTICS               1
Switch.   7.00E-01  1.00E-03  0.00E+00  0.00E+00  |  X0001BX0002B        .7      .001                    STATISTICS               0
Switch.   7.00E-01  1.00E-03  0.00E+00  0.00E+00  |  X0001AX0002A        .7      .001                    STATISTICS               0
Switch.   7.00E-01  1.00E-03  0.00E+00  0.00E+00  |  X0001CX0002C        .7      .001                    STATISTICS               0
Switch.   0.00E+00  6.98E-01  0.00E+00  0.00E+00  |  X0002AX0010A                .698                                             0
Switch.   0.00E+00  6.98E-01  0.00E+00  0.00E+00  |  X0002BX0010B                .698                                             0
Switch.   0.00E+00  6.98E-01  0.00E+00  0.00E+00  |  X0002CX0010C                .698                                             0
Switch.   7.10E-01  0.00E+00  0.00E+00  0.00E+00  |  X0002AX0010A       .71                                                       0
Switch.   7.10E-01  0.00E+00  0.00E+00  0.00E+00  |  X0002BX0010B       .71                                                       0
Switch.   7.10E-01  0.00E+00  0.00E+00  0.00E+00  |  X0002CX0010C       .71                                                       0
Blank card ending switches.   KSWTCH = 13.        |BLANK SWITCH
Source.   4.29E+05  6.00E+01  0.00E+00 -1.00E+00  |14X0007A  428660.705       60.                                     -1.      100.
Source.   4.29E+05  6.00E+01 -1.20E+02 -1.00E+00  |14X0007B  428660.705       60.     -120.                           -1.      100.
Source.   4.29E+05  6.00E+01 -2.40E+02 -1.00E+00  |14X0007C  428660.705       60.     -240.                           -1.      100.
Blank card ends electric sources.  KCONST = 3     |BLANK SOURCE

     Total network loss  P-loss  by summing injections =   2.210312431479E+08

Card of names for time-step loop output.          |  X0003AX0003BX0003C
Output voltage differences for pairs of A6 names  |-5X0003BX0003CX0003AX0003BX0003CX0003A
Blank card ending requests for output variables.  |BLANK OUTPUT

Column headings for the  7   EMTP output variables follow.  These are divided among the 5 possible classes as follows ....
  First  6     output variables are electric-network voltage differences (upper voltage minus lower voltage);
  Next   1     output variables are branch currents (flowing from the upper node to the lower node);
   Step      Time      X0003A     X0003B     X0003C     X0003B     X0003A     X0003C     X0003C
                                                        X0003C     X0003B     X0003A     XX0009
 ***      Phasor I(0) =  2.5829391E+02                     Switch  "X0001B"  to  "X0002B"  closed in the steady-state.
 ***      Phasor I(0) =  3.4794687E+02                     Switch  "X0001A"  to  "X0002A"  closed in the steady-state.
 ***      Phasor I(0) = -6.0393989E+02                     Switch  "X0001C"  to  "X0002C"  closed in the steady-state.
 ***                    Switch  "X0002A"  to  "X0010A"  closed  after  0.00000000E+00  sec.
 ***                    Switch  "X0002B"  to  "X0010B"  closed  after  0.00000000E+00  sec.
 ***                    Switch  "X0002C"  to  "X0010C"  closed  after  0.00000000E+00  sec.
      0       0.0  302237.343 -334339.45 33264.6081 -367604.06 636576.791 -268972.74        0.0
    500     .5E-3  335632.361 -298228.56  -35303.23 -262925.33 633860.917 -370935.59        0.0
   1000     .1E-2  358525.406 -252079.35 -102932.13 -149147.21 610604.752 -461457.54        0.0
   1500     .0015  367975.456 -196985.58 -166802.16 -30183.422 564961.041 -534777.62        0.0
   2000      .002  496699.663 -4776.2593 -547640.15 542863.894 501475.923 -.104434E7        0.0
   2500     .0025   455684.54 165125.446 -629521.58 794647.023 290559.094 -.108521E7        0.0
   3000      .003  378311.882  289752.06 -676198.02 965950.083 88559.8223 -.105451E7        0.0
   3500     .0035  272621.933  378235.79 -664201.96 .1042438E7 -105613.86 -936823.89        0.0
   4000      .004  158321.822 464901.561 -602856.59 .1067758E7 -306579.74 -761178.41        0.0
   4500     .0045  42620.7276 534619.301 -535584.51 .1070204E7 -491998.57 -578205.24        0.0
   5000      .005  -88594.336  576456.65 -453024.51 .1029481E7 -665050.99 -364430.18        0.0
   5500     .0055  -279099.84 553365.062 -249622.21 802987.269  -832464.9 29477.6295        0.0
   6000      .006  -407438.27 483643.633  -57982.21 541625.843  -891081.9 349456.056        0.0
   6500     .0065  -483623.22 409088.446 100956.496  308131.95 -892711.67 584579.717        0.0
   7000      .007  -526236.98 337301.026 214395.285 122905.741   -863538. 740632.262        0.0
   7500     .0075  -538670.86 267558.122 278974.487 -11416.365 -806228.98 817645.347        0.0
   8000      .008  -529599.26 189338.814 323373.486 -134034.67 -718938.07 852972.744        0.0
   8500     .0085  -500200.78 104550.142  357116.61 -252566.47 -604750.92 857317.388        0.0
   9000      .009   -425435.1 29408.1175 347262.131 -317854.01 -454843.22 772697.234        0.0
   9500     .0095   -338821.9 -20888.868 313631.981 -334520.85 -317933.03 652453.878        0.0
  10000       .01  -263716.91 -60739.252 280548.532 -341287.78 -202977.65 544265.437        0.0
 ***                                                             Close switch  "X0003C"  to  "XX0009"  after  1.00010000E-02  sec.
  10500     .0105  -261502.12 -169540.61 25263.4758 -194804.09 -91961.509 286765.598 842.115859
  11000      .011  -210960.36 -223188.35 27002.1151 -250190.47 12227.9932 237962.476 900.070504
  11500     .0115  -161528.55 -286866.09 30248.7712 -317114.86 125337.531 191777.325 1008.29237
  12000      .012  -119692.05  -357491.7 35599.8774 -393091.57 237799.648 155291.924 1186.66258
  12500     .0125  -80436.111 -408039.01  39713.699 -447752.71 327602.898  120149.81 1323.78997
  13000      .013  -28716.684  -456530.3 42417.0819 -498947.38 427813.613 71133.7656 1413.90273
  13500     .0135  -20684.765 -516937.73  45880.595 -562818.33 496252.969   66565.36 1529.35317
  14000      .014  -16538.075 -611163.33 55573.6218 -666736.95 594625.252 72111.6969 1852.45406
  14500     .0145  99246.4404 -588687.19 62342.1111 -651029.31 687933.635 -36904.329 2078.07037
  15000      .015  211602.941 -532933.23 63267.0119 -596200.24 744536.166 -148335.93  2108.9004
  15500     .0155  307155.957 -460482.36 58208.4964 -518690.86  767638.32 -248947.46 1940.28321
  16000      .016  401137.454 -373256.91  50366.509 -423623.41  774394.36 -350770.95 1678.88363
  16500     .0165  488738.711  -265990.8 41232.5978  -307223.4 754729.514 -447506.11 1374.41993
  17000      .017  565897.427 -136614.65    29815.5 -166430.15  702512.08 -536081.93 993.850001
  17500     .0175  613932.608 780.597901 17572.4575  -16791.86  613152.01 -596360.15 585.748583
  18000      .018    625478.6 144361.791 9307.85357 135053.937  481116.81 -616170.75 310.261786
  18500     .0185  606586.959 278553.319 3796.99361 274756.326  328033.64 -602789.97 126.566454
  19000      .019  554671.274 387427.185 -3439.9312 390867.116 167244.088  -558111.2 -114.66437
  19500     .0195  473295.359 472736.138  -11985.39 484721.527 559.220848 -485280.75 -399.51298
  20000       .02  365540.571 533517.898  -20891.74 554409.638 -167977.33 -386432.31 -696.39133
  20500     .0205  242125.715 569307.472 -29572.055 598879.527 -327181.76 -271697.77 -985.73517
  21000      .021  112959.149 580501.008 -37966.214 618467.222 -467541.86 -150925.36 -1265.5405
  21500     .0215  -21295.876 560595.211 -45234.594 605829.805 -581891.09 -23938.718 -1507.8198
  22000      .022  -152900.76 514272.265 -49810.437 564082.702 -667173.02 103090.318 -1660.3479
  22500     .0225  -266558.86 458293.249 -51624.192 509917.441 -724852.11 214934.667 -1720.8064
  23000      .023  -356671.82 400315.969 -51127.323 451443.291 -756987.79 305544.499 -1704.2441
  23500     .0235  -424044.66 338898.696 -48923.427 387822.122 -762943.36 375121.238 -1630.7809
  24000      .024  -470864.68 272704.721 -45172.178 317876.899  -743569.4 425692.503 -1505.7393
  24500     .0245  -498475.41 202605.341 -39953.653 242558.994 -701080.75 458521.754 -1331.7884
  25000      .025  -508038.37 130598.804 -33670.488 164269.292 -638637.17 474367.882 -1122.3496
  25500     .0255   -503266.9  56207.493 -26450.447 82657.9403  -559474.4 476816.456 -881.68158
  26000      .026   -486298.7 -21033.248 -17854.495 -3178.7528 -465265.45 468444.203 -595.14983
  26500     .0265  -458623.99 -101856.85 -7776.7933 -94080.059 -356767.14 450847.197 -259.22644
  27000      .027  -421961.31 -186195.79 3158.83246 -189354.62 -235765.52 425120.145 105.294415
  27500     .0275  -376871.29 -271775.93 14169.0348 -285944.96 -105095.36 391040.325 472.301161
  28000      .028  -322944.35 -354796.12 24659.2189 -379455.34 31851.7759 347603.567 821.973965
  28500     .0285  -259123.54  -430409.6 34157.8658 -464567.47 171286.065 293281.405 1138.59553
  29000      .029  -184912.23 -493876.14 42188.2005 -536064.34 308963.916 227100.427 1406.27335
  29500     .0295  -102063.81 -541706.48 48443.8414 -590150.32 439642.666 150507.656 1614.79471
  30000       .03  -12848.073 -570406.37 52886.2256 -623292.59 557558.294 65734.2985 1762.87419
  30500     .0305  81175.4266 -575984.63 55555.7173 -631540.35 657160.061 -25619.709 1851.85724
  31000      .031  178032.978 -555427.92 56469.3058 -611897.23 733460.897 -121563.67 1882.31019
  31500     .0315  274021.123  -508323.3 55611.2262 -563934.52 782344.421  -218409.9 1853.70754
  32000      .032  364096.014 -436965.65 52994.5667 -489960.21 801061.662 -311101.45 1766.48556
  32500     .0325  443142.281 -345372.16 48673.0307 -394045.19 788514.439 -394469.25 1622.43436
  33000      .033  506682.112 -238612.96 42705.2551 -281318.21 745295.069 -463976.86  1423.5085
  33500     .0335  550924.673 -122595.94 35227.5121 -157823.45 673520.609 -515697.16  1174.2504
  34000      .034  573037.649 -3554.7754 26536.6585 -30091.434 576592.424 -546500.99 884.555284
  34500     .0345  571336.479 112395.688 17032.1314 95363.5566 458940.791 -554304.35 567.737712
  35000      .035  545519.976 219713.621 7096.94965 212616.671 325806.355 -538423.03 236.564988
  35500     .0355  496823.785 313972.289  -2939.179 316911.468 182851.496 -499762.96 -97.972635
  36000      .036  427902.472 392189.773 -12766.909 404956.683 35712.6989 -440669.38 -425.56365
  36500     .0365  342554.232 452843.565 -22084.885 474928.451 -110289.33 -364639.12 -736.16284
  37000      .037  245212.029 495506.926 -30618.332 526125.258  -250294.9 -275830.36 -1020.6111
  37500     .0375   140406.73 520365.418 -38112.914 558478.333 -379958.69 -178519.64 -1270.4305
  38000      .038  32588.7477 528022.789 -44314.395 572337.184 -495434.04 -76903.142 -1477.1465
  38500     .0385  -73894.915  519509.59 -48973.645 568483.235 -593404.51 24921.2705 -1632.4548
  39000      .039  -174978.61 496156.576  -51874.74 548031.316 -671135.19 123103.872  -1729.158
  39500     .0395   -267185.8 459262.229 -52864.137 512126.366 -726448.03 214321.665 -1762.1379
  40000       .04   -347804.2 409853.497 -51866.581 461720.078  -757657.7 295937.622  -1728.886
  40500     .0405  -414814.67 348748.387 -48895.753 397644.139 -763563.05 365918.915 -1629.8584
  41000      .041    -466754. 276791.368  -44062.47 320853.839 -743545.37 422691.529  -1468.749
  41500     .0415  -502639.24 195091.758 -37564.108 232655.866   -697731. 465075.134 -1252.1369
  42000      .042  -521917.45 105202.631  -29657.41 134860.041 -627120.08 492260.041 -988.58033
  % % % % % %   Suspended simulation;  plot data space exhausted;  SPY SPACE is required.   LIMBUF =  340000.
  % % % % % %   Suspended simulation;  plot data space exhausted;  SPY SPACE is required.   LIMBUF =  340000.
  +++  Time-sharing disabled.   Send  user-keyed interrupt to silence alarm.
