   ---   55   cards of disk file read into card cache cells  1   onward.
 <===> Done with  "/"-card sorting by data class.    Remember that the source file appears different from interpreted input data.
Alternative Transients Program (ATP),  F77 GNU Linux or DOS.  All rights reserved by Can/Am user group of Portland, Oregon, USA.
 Date (dd-mth-yy) and time of day (hh.mm.ss) = 11-Nov-18  11.00.00    Name of disk plot file, if any, is
Consult the 860-page ATP Rule Book of the Can/Am EMTP User Group in Portland,  Oregon, USA.  Source code date is
Total size of LABCOM tables = 16446853 INTEGER words.  31 VARDIM  List Sizes follow:  6002  10K  192K  900  420K  1200  15K
  120K  2250  3800  720  2K  72800  510  800K  800  90  254  800K  100K  3K  15K  192K  120  45K  260K  600  210K  1100  19  200K
--------------------------------------------------+--------------------------------------------------------------------------------
Descriptive interpretation of input data cards.   |  Input data card images are shown below, all 80 columns, character by character
                                                  0         1         2         3         4         5         6         7         8
                                                  012345678901234567890123456789012345678901234567890123456789012345678901234567890
--------------------------------------------------+--------------------------------------------------------------------------------
Comment card.   KOMPAR > 0.                       |C data:Caso0_ReEnergizacao_Convenc_RPI.atp
Marker card preceding new EMTP data case.         |BEGIN NEW DATA CASE
Comment card.   KOMPAR > 0.                       |C $DUMMY, XYZ000
Misc. data.     1.000E-06   1.000E+00   0.000E+00 |   1.E-6      1.
Misc. data.  500  1  0  0  1  0  0  1  300  0     |     500       1       0       0       1       0       0       1     300
Statistics data.      1    1    0    0    1    0  |       1       1       0       0       1      -1                               0
Series R-L-C.   5.000E+00  7.500E-02  0.000E+00   |  X0001AX0007A                5.   75.                                         0
Series R-L-C.   5.000E+00  7.500E-02  0.000E+00   |  X0001BX0007B                5.   75.                                         0
Series R-L-C.   5.000E+00  7.500E-02  0.000E+00   |  X0001CX0007C                5.   75.                                         0
Series R-L-C.   2.000E+02  0.000E+00  0.000E+00   |  X0007AX0001A              200.                                               0
Series R-L-C.   2.000E+02  0.000E+00  0.000E+00   |  X0007BX0001B              200.                                               0
Series R-L-C.   2.000E+02  0.000E+00  0.000E+00   |  X0007CX0001C              200.                                               0
Series R-L-C.   1.516E+00  1.608E+00  0.000E+00   |  X0003BXX0008            1.5155 1608.                                         0
Series R-L-C.   1.516E+00  1.608E+00  0.000E+00   |  X0003AXX0008            1.5155 1608.                                         0
Series R-L-C.   1.516E+00  1.608E+00  0.000E+00   |  X0003CXX0008            1.5155 1608.                                         0
Series R-L-C.   3.272E-01  3.472E-01  0.000E+00   |  XX0008                   .3272 347.2                                         0
Series R-L-C.   3.000E+01  0.000E+00  0.000E+00   |  XX0009                     30.                                               0
Series R-L-C.   2.000E+02  0.000E+00  0.000E+00   |  X0002AX0010A              200.                                               0
Series R-L-C.   2.000E+02  0.000E+00  0.000E+00   |  X0002BX0010B              200.                                               0
Series R-L-C.   2.000E+02  0.000E+00  0.000E+00   |  X0002CX0010C              200.                                               0
Dynamic $INCLUDE uses fixed RAM cache to delay.   |$INSERT, C:\SimulacaoATP\EXT1.pch
J. Marti line, mode  1   parameters begin.        |-1X0010AX0006C                2.  0.00              -2 3
J. Marti line, mode  2   parameters begin.        |-2X0010BX0006A                2.  0.00              -2 3
J. Marti line, mode  3   parameters begin.        |-3X0010CX0006B                2.  0.00              -2 3
TR(1,1 )...  0.667-0.707-0.317                    |  0.66668704 -0.70710678 -0.31743981
TI(1,1 )...  0.000 0.000 0.004                    |  0.00000000  0.00000000  0.00360196
TR(2,1 )...  0.333 0.000 0.894                    |  0.33285412  0.00000000  0.89350256
TI(2,1 )... -0.016 0.000 0.010                    | -0.01627623  0.00000000  0.00954818
TR(3,1 )...  0.667 0.707-0.317                    |  0.66668704  0.70710678 -0.31743981
TI(3,1 )...  0.000 0.000 0.004                    |  0.00000000  0.00000000  0.00360196
Dynamic $INCLUDE uses fixed RAM cache to delay.   |$INSERT, C:\SimulacaoATP\CONV2.pch
J. Marti line, mode  1   parameters begin.        |-1X0004AX0005C                2.  0.00              -2 3
J. Marti line, mode  2   parameters begin.        |-2X0004BX0005A                2.  0.00              -2 3
J. Marti line, mode  3   parameters begin.        |-3X0004CX0005B                2.  0.00              -2 3
TR(1,1 )...  0.667-0.707-0.317                    |  0.66668704 -0.70710678 -0.31743981
TI(1,1 )...  0.000 0.000 0.004                    |  0.00000000  0.00000000  0.00360196
TR(2,1 )...  0.333 0.000 0.894                    |  0.33285412  0.00000000  0.89350256
TI(2,1 )... -0.016 0.000 0.010                    | -0.01627623  0.00000000  0.00954818
TR(3,1 )...  0.667 0.707-0.317                    |  0.66668704  0.70710678 -0.31743981
TI(3,1 )...  0.000 0.000 0.004                    |  0.00000000  0.00000000  0.00360196
Dynamic $INCLUDE uses fixed RAM cache to delay.   |$INSERT, C:\SimulacaoATP\EXT3.pch
J. Marti line, mode  1   parameters begin.        |-1X0005AX0003A                2.  0.00              -2 3
J. Marti line, mode  2   parameters begin.        |-2X0005BX0003B                2.  0.00              -2 3
J. Marti line, mode  3   parameters begin.        |-3X0005CX0003C                2.  0.00              -2 3
TR(1,1 )...  0.667-0.707-0.317                    |  0.66668704 -0.70710678 -0.31743981
TI(1,1 )...  0.000 0.000 0.004                    |  0.00000000  0.00000000  0.00360196
TR(2,1 )...  0.333 0.000 0.894                    |  0.33285412  0.00000000  0.89350256
TI(2,1 )... -0.016 0.000 0.010                    | -0.01627623  0.00000000  0.00954818
TR(3,1 )...  0.667 0.707-0.317                    |  0.66668704  0.70710678 -0.31743981
TI(3,1 )...  0.000 0.000 0.004                    |  0.00000000  0.00000000  0.00360196
Dynamic $INCLUDE uses fixed RAM cache to delay.   |$INSERT, C:\SimulacaoATP\CONV4.pch
J. Marti line, mode  1   parameters begin.        |-1X0006AX0004C                2.  0.00              -2 3
J. Marti line, mode  2   parameters begin.        |-2X0006BX0004A                2.  0.00              -2 3
J. Marti line, mode  3   parameters begin.        |-3X0006CX0004B                2.  0.00              -2 3
TR(1,1 )...  0.667-0.707-0.317                    |  0.66668704 -0.70710678 -0.31743981
TI(1,1 )...  0.000 0.000 0.004                    |  0.00000000  0.00000000  0.00360196
TR(2,1 )...  0.333 0.000 0.894                    |  0.33285412  0.00000000  0.89350256
TI(2,1 )... -0.016 0.000 0.010                    | -0.01627623  0.00000000  0.00954818
TR(3,1 )...  0.667 0.707-0.317                    |  0.66668704  0.70710678 -0.31743981
TI(3,1 )...  0.000 0.000 0.004                    |  0.00000000  0.00000000  0.00360196
Blank card ending branches.  IBR, NTOT = 26  27   |BLANK BRANCH
Switch.   5.50E-02  1.00E-03  0.00E+00  3.33E+03  |  X0001BX0002B      .055      .001               3333.STATISTICS               0
Switch.   5.50E-02  1.00E-03  0.00E+00  3.33E+03  |  X0001AX0002A      .055      .001               3333.STATISTICS               0
Switch.   5.50E-02  1.00E-03  0.00E+00  3.33E+03  |  X0001CX0002C      .055      .001               3333.STATISTICS               0
Switch.   1.00E-02  1.00E-03  0.00E+00  0.00E+00  |  X0003CXX0009       .01      .001                    STATISTICS               1
Switch.   7.00E-01  1.00E-03  0.00E+00  0.00E+00  |  X0001BX0002B        .7      .001                    STATISTICS               0
Switch.   7.00E-01  1.00E-03  0.00E+00  0.00E+00  |  X0001AX0002A        .7      .001                    STATISTICS               0
Switch.   7.00E-01  1.00E-03  0.00E+00  0.00E+00  |  X0001CX0002C        .7      .001                    STATISTICS               0
Switch.   0.00E+00  6.98E-01  0.00E+00  0.00E+00  |  X0002AX0010A                .698                                             0
Switch.   0.00E+00  6.98E-01  0.00E+00  0.00E+00  |  X0002BX0010B                .698                                             0
Switch.   0.00E+00  6.98E-01  0.00E+00  0.00E+00  |  X0002CX0010C                .698                                             0
Switch.   7.10E-01  0.00E+00  0.00E+00  0.00E+00  |  X0002AX0010A       .71                                                       0
Switch.   7.10E-01  0.00E+00  0.00E+00  0.00E+00  |  X0002BX0010B       .71                                                       0
Switch.   7.10E-01  0.00E+00  0.00E+00  0.00E+00  |  X0002CX0010C       .71                                                       0
Blank card ending switches.   KSWTCH = 13.        |BLANK SWITCH
Source.   4.29E+05  6.00E+01  0.00E+00 -1.00E+00  |14X0007A  428660.705       60.                                     -1.      100.
Source.   4.29E+05  6.00E+01 -1.20E+02 -1.00E+00  |14X0007B  428660.705       60.     -120.                           -1.      100.
Source.   4.29E+05  6.00E+01 -2.40E+02 -1.00E+00  |14X0007C  428660.705       60.     -240.                           -1.      100.
Blank card ends electric sources.  KCONST = 3     |BLANK SOURCE

     Total network loss  P-loss  by summing injections =   1.471974235173E+08

Card of names for time-step loop output.          |  X0003AX0003BX0003C
Output voltage differences for pairs of A6 names  |-5X0003BX0003CX0003AX0003BX0003CX0003A
Blank card ending requests for output variables.  |BLANK OUTPUT

Column headings for the  7   EMTP output variables follow.  These are divided among the 5 possible classes as follows ....
  First  6     output variables are electric-network voltage differences (upper voltage minus lower voltage);
  Next   1     output variables are branch currents (flowing from the upper node to the lower node);
   Step      Time      X0003A     X0003B     X0003C     X0003B     X0003A     X0003C     X0003C
                                                        X0003C     X0003B     X0003A     XX0009
 ***      Phasor I(0) =  4.4900481E+02                     Switch  "X0001B"  to  "X0002B"  closed in the steady-state.
 ***      Phasor I(0) =  2.3356973E+02                     Switch  "X0001A"  to  "X0002A"  closed in the steady-state.
 ***      Phasor I(0) = -6.8317115E+02                     Switch  "X0001C"  to  "X0002C"  closed in the steady-state.
 ***                    Switch  "X0002A"  to  "X0010A"  closed  after  0.00000000E+00  sec.
 ***                    Switch  "X0002B"  to  "X0010B"  closed  after  0.00000000E+00  sec.
 ***                    Switch  "X0002C"  to  "X0010C"  closed  after  0.00000000E+00  sec.
      0       0.0  400856.041 -321687.26 -74464.235 -247223.02 722543.297 -475320.28        0.0
    500     .5E-3  419006.447 -263874.48 -150309.66 -113564.82 682880.927 -569316.11        0.0
   1000     .1E-2  424090.146 -197301.53 -220847.72 23546.1913 621391.679 -644937.87        0.0
   1500     .0015  413667.798 -123496.22 -283530.29  160034.07  537164.02 -697198.09        0.0
   2000      .002  420658.514 62615.3691 -514155.57 576770.941 358043.145 -934814.09        0.0
   2500     .0025  361955.815 204597.813 -563857.66 768455.474 157358.002 -925813.48        0.0
   3000      .003  280885.142 308286.538 -584605.86 892892.393 -27401.396   -865491.        0.0
   3500     .0035  179928.433 383992.463 -563343.45 947335.915 -204064.03 -743271.89        0.0
   4000      .004  75100.9756 451411.053 -509338.28 960749.336 -376310.08 -584439.26        0.0
   4500     .0045  -27799.827 500975.555 -447314.36 948289.917 -528775.38 -419514.54        0.0
   5000      .005  -136445.57 528104.318 -372885.71 900990.031 -664549.89 -236440.14        0.0
   5500     .0055  -261291.57 501892.266 -229460.02 731352.285 -763183.84  31831.555        0.0
   6000      .006   -348558.4   446445.1   -88167.3   534612.4  -795003.5 260391.096        0.0
   6500     .0065  -409152.43 387941.503 33030.2303 354911.273 -797093.93 442182.656        0.0
   7000      .007   -448742.2 330124.141 126160.707 203963.435 -778866.34 574902.906        0.0
   7500     .0075   -466118.4 271740.517 191157.888 80582.6283 -737858.92 657276.289        0.0
   8000      .008  -467700.93 206742.457 245136.634 -38394.177 -674443.39 712837.565        0.0
   8500     .0085  -454901.87 136199.694 292543.841 -156344.15 -591101.56 747445.709        0.0
   9000      .009  -414966.83 70379.8004  315654.61 -245274.81 -485346.63 730621.439        0.0
   9500     .0095  -365264.98 17997.4974 321614.217 -303616.72 -383262.48 686879.198        0.0
  10000       .01  -314539.26 -32313.031 323221.767  -355534.8 -282226.23 637761.027        0.0
 ***                                                             Close switch  "X0003C"  to  "XX0009"  after  1.00010000E-02  sec.
  10500     .0105  -340873.62 -171377.06  31652.484 -203029.55 -169496.56 372526.105  1055.0828
  11000      .011  -295219.24   -236725.  34471.934 -271196.94 -58494.239 329691.175 1149.06447
  11500     .0115  -237623.31 -308575.03 37625.1793 -346200.21 70951.7233 275248.486 1254.17264
  12000      .012  -180877.31  -388751.6 42559.9463 -431311.55 207874.292 223437.255 1418.66488
  12500     .0125  -114557.21 -442775.59   45102.56 -487878.15 328218.385  159659.77 1503.41867
  13000      .013   -24910.74 -487038.16 45021.5742 -532059.73 462127.418  69932.314 1500.71914
  13500     .0135  9323.04314 -538594.94 45701.3898 -584296.33 547917.984 36378.3467 1523.37966
  14000      .014  20844.7818 -632645.57 55067.3272  -687712.9 653490.354 34222.5453 1835.57757
  14500     .0145  150532.485 -596740.18 62918.7197  -659658.9 747272.663 -87613.765 2097.29066
  15000      .015  271039.983 -523386.85 65538.8472 -588925.69 794426.831 -205501.14 2184.62824
  15500     .0155  362352.454  -436482.2 61637.2476 -498119.44  798834.65 -300715.21 2054.57492
  16000      .016  443026.926 -339505.36 54503.2784 -394008.64 782532.289 -388523.65 1816.77595
  16500     .0165  512069.589 -226361.41 45707.2957 -272068.71    738431. -466362.29 1523.57652
  17000      .017  569560.065 -96681.968 33731.9895 -130413.96 666242.033 -535828.08 1124.39965
  17500     .0175  598853.961 32933.3117 20090.1247  12843.187 565920.649 -578763.84 669.670822
  18000      .018  593651.106  163718.19 10836.1305 152882.059 429932.916 -582814.98 361.204349
  18500     .0185   563806.74 283480.022 5313.40748 278166.615 280326.718 -558493.33 177.113583
  19000      .019  508501.547 377847.855 -1697.9031 379545.758 130653.692 -510199.45 -56.596768
  19500     .0195   431754.03 451324.939  -10011.87 461336.809 -19570.909  -441765.9   -333.729
  20000       .02  334727.261 504241.515 -18703.269 522944.785 -169514.25 -353430.53 -623.44232
  20500     .0205  226398.509 537525.711 -27285.406 564811.118  -311127.2 -253683.92 -909.51354
  21000      .021  114396.426 552713.994 -35928.022 588642.016 -438317.57 -150324.45 -1197.6007
  21500     .0215  -4611.4519 541149.924 -43797.255 584947.179 -545761.38 -39185.803 -1459.9085
  22000      .022  -125798.33 504731.707 -48944.389 553676.096 -630530.03 76853.9369 -1631.4796
  22500     .0225   -233928.4 459768.955 -51038.656 510807.611 -693697.35 182889.741 -1701.2885
  23000      .023  -323376.75  413144.52 -50474.335 463618.855 -736521.27 272902.413 -1682.4778
  23500     .0235  -395077.15  361361.71 -47979.306 409341.017 -756438.86 347097.844 -1599.3102
  24000      .024  -450480.67 301259.052 -43827.282 345086.335 -751739.72 406653.385 -1460.9094
  24500     .0245  -489013.37 232837.107 -38198.518 271035.625 -721850.48 450814.855 -1273.2839
  25000      .025  -509622.86 158151.123 -31667.981 189819.104 -667773.99 477954.882 -1055.5994
  25500     .0255  -514683.74 77166.9655 -24490.762 101657.727 -591850.71 490192.983 -816.35873
  26000      .026  -505251.56 -9501.2663 -16150.068 6648.80184 -495750.29 489101.492 -538.33561
  26500     .0265  -481806.92  -101039.6 -6372.8229 -94666.779 -380767.32 475434.102 -212.42743
  27000      .027  -445564.66  -195669.6 4302.43387 -199972.04 -249895.05 449867.091 143.414462
  27500     .0275  -397241.52 -289451.76 15116.0515 -304567.81 -107789.75 412357.568 503.868385
  28000      .028  -337256.02 -377307.06 25491.7563 -402798.81 40051.0315  362747.78 849.725209
  28500     .0285  -265687.48 -453631.89 34956.8362 -488588.72 187944.409 300644.316 1165.22787
  29000      .029  -183186.35 -513623.25 42982.4195 -556605.67 330436.902  226168.77 1432.74732
  29500     .0295  -92834.463 -554635.14  49204.123 -603839.27  461800.68 142038.586 1640.13743
  30000       .03  1834.49898 -574598.21 53578.7947   -628177. 576432.705 51744.2957 1785.95982
  30500     .0305  98527.7172 -571020.69 56181.5465 -627202.24 669548.406 -42346.171 1872.71822
  31000      .031  195166.977 -542246.78 57066.5169  -599313.3 737413.756 -138100.46 1902.21723
  31500     .0315  288370.775 -489065.55 56234.2187 -545299.76  777436.32 -232136.56 1874.47396
  32000      .032   373725.26 -414678.43 53697.1306 -468375.56 788403.689 -320028.13 1789.90435
  32500     .0325   447001.86 -323466.77 49494.7881 -372961.56 770468.633 -397507.07 1649.82627
  33000      .033  504719.784 -220250.79 43647.5688 -263898.36 724970.574 -461072.22 1454.91896
  33500     .0335  543974.889 -110224.11  36241.155 -146465.26 654198.996 -507733.73  1208.0385
  34000      .034  562595.695 1410.73694 27542.8031 -26132.066 561184.958 -535052.89 918.093438
  34500     .0345  559270.825 109739.211 17956.8011 91782.4102 449531.614 -541314.02 598.560038
  35000      .035  533760.852 210409.353 7890.72511 202518.628 323351.499 -525870.13  263.02417
  35500     .0355  487067.267  299992.47 -2296.6428 302289.113 187074.797 -489363.91 -76.554759
  36000      .036  421376.014 376158.027  -12266.38 388424.407 45217.9867 -433642.39 -408.87934
  36500     .0365  339900.841 437605.492 -21691.982 459297.474 -97704.651 -361592.82 -723.06607
  37000      .037  246474.689 483681.804 -30287.642 513969.446 -237207.11 -276762.33 -1009.5881
  37500     .0375  145058.367 513923.849 -37803.958 551727.807 -368865.48 -182862.32 -1260.1319
  38000      .038   39627.746 527972.235 -43999.047 571971.282 -488344.49 -83626.793 -1466.6349
  38500     .0385  -65757.128  525770.06 -48635.008 574405.068 -591527.19 17122.1203 -1621.1669
  39000      .039  -167077.85 507640.416 -51503.435 559143.851 -674718.26 115574.413 -1716.7812
  39500     .0395   -260689.7 474106.096 -52455.768 526561.864  -734795.8 208233.932 -1748.5256
  40000       .04  -343561.97 425748.794 -51419.959 477168.753 -769310.77 292142.012 -1713.9986
  40500     .0405   -413266.4 363328.923  -48412.19 411741.113 -776595.33 364854.213 -1613.7397
  41000      .041  -467897.96 288017.747 -43548.088 331565.835  -755915.7 424349.868 -1451.6029
  41500     .0415   -506069.2 201562.477 -37033.338 238595.815 -707631.67 469035.859 -1234.4446
  42000      .042  -526925.55 106343.647 -29133.145 135476.792  -633269.2 497792.409 -971.10485
  % % % % % %   Suspended simulation;  plot data space exhausted;  SPY SPACE is required.   LIMBUF =  340000.
  % % % % % %   Suspended simulation;  plot data space exhausted;  SPY SPACE is required.   LIMBUF =  340000.
  +++  Time-sharing disabled.   Send  user-keyed interrupt to silence alarm.
