   ---   55   cards of disk file read into card cache cells  1   onward.
 <===> Done with  "/"-card sorting by data class.    Remember that the source file appears different from interpreted input data.
Alternative Transients Program (ATP),  F77 GNU Linux or DOS.  All rights reserved by Can/Am user group of Portland, Oregon, USA.
 Date (dd-mth-yy) and time of day (hh.mm.ss) = 11-Nov-18  11.00.00    Name of disk plot file, if any, is
Consult the 860-page ATP Rule Book of the Can/Am EMTP User Group in Portland,  Oregon, USA.  Source code date is
Total size of LABCOM tables = 16446853 INTEGER words.  31 VARDIM  List Sizes follow:  6002  10K  192K  900  420K  1200  15K
  120K  2250  3800  720  2K  72800  510  800K  800  90  254  800K  100K  3K  15K  192K  120  45K  260K  600  210K  1100  19  200K
--------------------------------------------------+--------------------------------------------------------------------------------
Descriptive interpretation of input data cards.   |  Input data card images are shown below, all 80 columns, character by character
                                                  0         1         2         3         4         5         6         7         8
                                                  012345678901234567890123456789012345678901234567890123456789012345678901234567890
--------------------------------------------------+--------------------------------------------------------------------------------
Comment card.   KOMPAR > 0.                       |C data:Caso0_ReEnergizacao_Convenc_RPI.atp
Marker card preceding new EMTP data case.         |BEGIN NEW DATA CASE
Comment card.   KOMPAR > 0.                       |C $DUMMY, XYZ000
Misc. data.     1.000E-06   1.000E+00   0.000E+00 |   1.E-6      1.
Misc. data.  500  1  0  0  1  0  0  1  300  0     |     500       1       0       0       1       0       0       1     300
Statistics data.      1    1    0    0    1    0  |       1       1       0       0       1      -1                               0
Series R-L-C.   5.000E+00  7.500E-02  0.000E+00   |  X0001AX0007A                5.   75.                                         0
Series R-L-C.   5.000E+00  7.500E-02  0.000E+00   |  X0001BX0007B                5.   75.                                         0
Series R-L-C.   5.000E+00  7.500E-02  0.000E+00   |  X0001CX0007C                5.   75.                                         0
Series R-L-C.   2.000E+02  0.000E+00  0.000E+00   |  X0007AX0001A              200.                                               0
Series R-L-C.   2.000E+02  0.000E+00  0.000E+00   |  X0007BX0001B              200.                                               0
Series R-L-C.   2.000E+02  0.000E+00  0.000E+00   |  X0007CX0001C              200.                                               0
Series R-L-C.   1.516E+00  1.608E+00  0.000E+00   |  X0003BXX0008            1.5155 1608.                                         0
Series R-L-C.   1.516E+00  1.608E+00  0.000E+00   |  X0003AXX0008            1.5155 1608.                                         0
Series R-L-C.   1.516E+00  1.608E+00  0.000E+00   |  X0003CXX0008            1.5155 1608.                                         0
Series R-L-C.   3.272E-01  3.472E-01  0.000E+00   |  XX0008                   .3272 347.2                                         0
Series R-L-C.   3.000E+01  0.000E+00  0.000E+00   |  XX0009                     30.                                               0
Series R-L-C.   1.000E+02  0.000E+00  0.000E+00   |  X0002AX0010A              100.                                               0
Series R-L-C.   1.000E+02  0.000E+00  0.000E+00   |  X0002BX0010B              100.                                               0
Series R-L-C.   1.000E+02  0.000E+00  0.000E+00   |  X0002CX0010C              100.                                               0
Dynamic $INCLUDE uses fixed RAM cache to delay.   |$INSERT, C:\SimulacaoATP\EXT1.pch
J. Marti line, mode  1   parameters begin.        |-1X0010AX0006C                2.  0.00              -2 3
J. Marti line, mode  2   parameters begin.        |-2X0010BX0006A                2.  0.00              -2 3
J. Marti line, mode  3   parameters begin.        |-3X0010CX0006B                2.  0.00              -2 3
TR(1,1 )...  0.667-0.707-0.317                    |  0.66668704 -0.70710678 -0.31743981
TI(1,1 )...  0.000 0.000 0.004                    |  0.00000000  0.00000000  0.00360196
TR(2,1 )...  0.333 0.000 0.894                    |  0.33285412  0.00000000  0.89350256
TI(2,1 )... -0.016 0.000 0.010                    | -0.01627623  0.00000000  0.00954818
TR(3,1 )...  0.667 0.707-0.317                    |  0.66668704  0.70710678 -0.31743981
TI(3,1 )...  0.000 0.000 0.004                    |  0.00000000  0.00000000  0.00360196
Dynamic $INCLUDE uses fixed RAM cache to delay.   |$INSERT, C:\SimulacaoATP\CONV2.pch
J. Marti line, mode  1   parameters begin.        |-1X0004AX0005C                2.  0.00              -2 3
J. Marti line, mode  2   parameters begin.        |-2X0004BX0005A                2.  0.00              -2 3
J. Marti line, mode  3   parameters begin.        |-3X0004CX0005B                2.  0.00              -2 3
TR(1,1 )...  0.667-0.707-0.317                    |  0.66668704 -0.70710678 -0.31743981
TI(1,1 )...  0.000 0.000 0.004                    |  0.00000000  0.00000000  0.00360196
TR(2,1 )...  0.333 0.000 0.894                    |  0.33285412  0.00000000  0.89350256
TI(2,1 )... -0.016 0.000 0.010                    | -0.01627623  0.00000000  0.00954818
TR(3,1 )...  0.667 0.707-0.317                    |  0.66668704  0.70710678 -0.31743981
TI(3,1 )...  0.000 0.000 0.004                    |  0.00000000  0.00000000  0.00360196
Dynamic $INCLUDE uses fixed RAM cache to delay.   |$INSERT, C:\SimulacaoATP\EXT3.pch
J. Marti line, mode  1   parameters begin.        |-1X0005AX0003A                2.  0.00              -2 3
J. Marti line, mode  2   parameters begin.        |-2X0005BX0003B                2.  0.00              -2 3
J. Marti line, mode  3   parameters begin.        |-3X0005CX0003C                2.  0.00              -2 3
TR(1,1 )...  0.667-0.707-0.317                    |  0.66668704 -0.70710678 -0.31743981
TI(1,1 )...  0.000 0.000 0.004                    |  0.00000000  0.00000000  0.00360196
TR(2,1 )...  0.333 0.000 0.894                    |  0.33285412  0.00000000  0.89350256
TI(2,1 )... -0.016 0.000 0.010                    | -0.01627623  0.00000000  0.00954818
TR(3,1 )...  0.667 0.707-0.317                    |  0.66668704  0.70710678 -0.31743981
TI(3,1 )...  0.000 0.000 0.004                    |  0.00000000  0.00000000  0.00360196
Dynamic $INCLUDE uses fixed RAM cache to delay.   |$INSERT, C:\SimulacaoATP\CONV4.pch
J. Marti line, mode  1   parameters begin.        |-1X0006AX0004C                2.  0.00              -2 3
J. Marti line, mode  2   parameters begin.        |-2X0006BX0004A                2.  0.00              -2 3
J. Marti line, mode  3   parameters begin.        |-3X0006CX0004B                2.  0.00              -2 3
TR(1,1 )...  0.667-0.707-0.317                    |  0.66668704 -0.70710678 -0.31743981
TI(1,1 )...  0.000 0.000 0.004                    |  0.00000000  0.00000000  0.00360196
TR(2,1 )...  0.333 0.000 0.894                    |  0.33285412  0.00000000  0.89350256
TI(2,1 )... -0.016 0.000 0.010                    | -0.01627623  0.00000000  0.00954818
TR(3,1 )...  0.667 0.707-0.317                    |  0.66668704  0.70710678 -0.31743981
TI(3,1 )...  0.000 0.000 0.004                    |  0.00000000  0.00000000  0.00360196
Blank card ending branches.  IBR, NTOT = 26  27   |BLANK BRANCH
Switch.   5.50E-02  1.00E-03  0.00E+00  3.33E+03  |  X0001BX0002B      .055      .001               3333.STATISTICS               0
Switch.   5.50E-02  1.00E-03  0.00E+00  3.33E+03  |  X0001AX0002A      .055      .001               3333.STATISTICS               0
Switch.   5.50E-02  1.00E-03  0.00E+00  3.33E+03  |  X0001CX0002C      .055      .001               3333.STATISTICS               0
Switch.   1.00E-02  1.00E-03  0.00E+00  0.00E+00  |  X0003CXX0009       .01      .001                    STATISTICS               1
Switch.   7.00E-01  1.00E-03  0.00E+00  0.00E+00  |  X0001BX0002B        .7      .001                    STATISTICS               0
Switch.   7.00E-01  1.00E-03  0.00E+00  0.00E+00  |  X0001AX0002A        .7      .001                    STATISTICS               0
Switch.   7.00E-01  1.00E-03  0.00E+00  0.00E+00  |  X0001CX0002C        .7      .001                    STATISTICS               0
Switch.   0.00E+00  6.98E-01  0.00E+00  0.00E+00  |  X0002AX0010A                .698                                             0
Switch.   0.00E+00  6.98E-01  0.00E+00  0.00E+00  |  X0002BX0010B                .698                                             0
Switch.   0.00E+00  6.98E-01  0.00E+00  0.00E+00  |  X0002CX0010C                .698                                             0
Switch.   7.10E-01  0.00E+00  0.00E+00  0.00E+00  |  X0002AX0010A       .71                                                       0
Switch.   7.10E-01  0.00E+00  0.00E+00  0.00E+00  |  X0002BX0010B       .71                                                       0
Switch.   7.10E-01  0.00E+00  0.00E+00  0.00E+00  |  X0002CX0010C       .71                                                       0
Blank card ending switches.   KSWTCH = 13.        |BLANK SWITCH
Source.   4.29E+05  6.00E+01  0.00E+00 -1.00E+00  |14X0007A  428660.705       60.                                     -1.      100.
Source.   4.29E+05  6.00E+01 -1.20E+02 -1.00E+00  |14X0007B  428660.705       60.     -120.                           -1.      100.
Source.   4.29E+05  6.00E+01 -2.40E+02 -1.00E+00  |14X0007C  428660.705       60.     -240.                           -1.      100.
Blank card ends electric sources.  KCONST = 3     |BLANK SOURCE

     Total network loss  P-loss  by summing injections =   8.169492061606E+07

Card of names for time-step loop output.          |  X0003AX0003BX0003C
Output voltage differences for pairs of A6 names  |-5X0003BX0003CX0003AX0003BX0003CX0003A
Blank card ending requests for output variables.  |BLANK OUTPUT

Column headings for the  7   EMTP output variables follow.  These are divided among the 5 possible classes as follows ....
  First  6     output variables are electric-network voltage differences (upper voltage minus lower voltage);
  Next   1     output variables are branch currents (flowing from the upper node to the lower node);
   Step      Time      X0003A     X0003B     X0003C     X0003B     X0003A     X0003C     X0003C
                                                        X0003C     X0003B     X0003A     XX0009
 ***      Phasor I(0) =  5.4753835E+02                     Switch  "X0001B"  to  "X0002B"  closed in the steady-state.
 ***      Phasor I(0) =  1.3090849E+02                     Switch  "X0001A"  to  "X0002A"  closed in the steady-state.
 ***      Phasor I(0) = -6.8117136E+02                     Switch  "X0001C"  to  "X0002C"  closed in the steady-state.
 ***                    Switch  "X0002A"  to  "X0010A"  closed  after  0.00000000E+00  sec.
 ***                    Switch  "X0002B"  to  "X0010B"  closed  after  0.00000000E+00  sec.
 ***                    Switch  "X0002C"  to  "X0010C"  closed  after  0.00000000E+00  sec.
      0       0.0   437285.92 -285781.34 -145250.65  -140530.7 723067.264 -582536.57        0.0
    500     .5E-3  442873.821 -217319.28 -219787.46 2468.17918 660193.104 -662661.28        0.0
   1000     .1E-2   434678.53 -141739.69 -286342.24 144602.548 576418.222 -721020.77        0.0
   1500     .0015  410828.191 -60753.193 -342782.76  282029.57 471581.384 -753610.95        0.0
   2000      .002  375017.674 87091.6314 -474202.53 561294.163 287926.042  -849220.2        0.0
   2500     .0025  311731.266 201570.897 -506508.25 708079.151 110160.369 -818239.52        0.0
   3000      .003  233416.362 290539.249 -516031.95 806571.203 -57122.887 -749448.32        0.0
   3500     .0035  141430.004 360041.254 -495898.36 855939.614 -218611.25 -637328.36        0.0
   4000      .004  46339.5359 419017.337  -452520.4 871537.732  -372677.8 -498859.93        0.0
   4500     .0045  -47507.407 461764.209 -398537.67 860301.878 -509271.62 -351030.26        0.0
   5000      .005  -142660.22 486111.469 -332495.74  818607.21 -628771.69 -189835.52        0.0
   5500     .0055   -238776.9  472956.12 -227978.06  700934.18 -711733.02 10798.8429        0.0
   6000      .006   -312854.7 438529.927 -120065.66 558595.592 -751384.63 192789.034        0.0
   6500     .0065  -371077.57 396758.587  -20546.99 417305.577 -767836.16 350530.578        0.0
   7000      .007  -413790.07 349659.802 65308.6623 284351.139 -763449.87 479098.731        0.0
   7500     .0075  -438780.46 296755.815  136988.65 159767.166 -735536.27 575769.107        0.0
   8000      .008  -449281.86 235564.848 202176.448 33388.3992 -684846.71 651458.307        0.0
   8500     .0085  -445861.42 167405.448 261788.565 -94383.117 -613266.87 707649.982        0.0
   9000      .009  -422575.63 98657.7293 306292.569 -207634.84 -521233.36 728868.195        0.0
   9500     .0095  -387723.47 34710.8151 337086.654 -302375.84 -422434.29 724810.124        0.0
  10000       .01  -344547.91 -30012.501 359544.503   -389557. -314535.41  704092.41        0.0
 ***                                                             Close switch  "X0003C"  to  "XX0009"  after  1.00010000E-02  sec.
  10500     .0105  -384209.71 -193568.89 36322.0342 -229890.92 -190640.82 420531.741 1210.73447
  11000      .011   -335767.4 -265450.34 39398.4247 -304848.77 -70317.054 375165.822 1313.28082
  11500     .0115  -268859.82 -338779.63 42019.5866 -380799.22 69919.8061 310879.409 1400.65289
  12000      .012   -201722.8 -419433.11 46361.3514 -465794.46 217710.303 248084.156 1545.37838
  12500     .0125  -120505.06 -468485.95 47709.2227 -516195.18 347980.896 168214.279 1590.30742
  13000      .013  -11656.786 -502168.38 45765.1772 -547933.56 490511.592 57421.9629 1525.50591
  13500     .0135   31305.958 -541571.74   44766.77 -586338.51 572877.696 13460.8121 1492.22567
  14000      .014  39607.9691 -632771.22 54383.7199 -687154.94 672379.194 14775.7508 1812.79066
  14500     .0145  174748.184 -585245.94 63378.4425 -648624.38 759994.121 -111369.74 2112.61475
  15000      .015   297800.93 -500614.36 67315.3545 -567929.71 798415.288 -230485.58 2243.84515
  15500     .0155  384597.223 -407876.46 64117.7514 -471994.21 792473.686 -320479.47 2137.25838
  16000      .016  456949.546 -310606.83 57269.4908 -367876.32 767556.374 -399680.06 1908.98303
  16500     .0165   516629.18 -200757.04 48495.4101 -249252.45 717386.224 -468133.77 1616.51367
  17000      .017  565966.657 -77573.638  35956.745 -113530.38 643540.295 -530009.91 1198.55817
  17500     .0175  588001.243 41588.6861 21267.6672 20321.0189 546412.557 -566733.58 708.922241
  18000      .018  576165.284 161009.164 11433.2999 149575.864  415156.12 -564731.98 381.109997
  18500     .0185  542690.351 270961.471 6081.95025  264879.52  271728.88  -536608.4 202.731675
  19000      .019  487519.284  357920.67 -668.29047 358588.961 129598.614 -488187.57 -22.276349
  19500     .0195  414630.948 427977.153 -8789.5424 436766.696 -13346.206 -423420.49 -292.98475
  20000       .02  323649.475 481492.693 -17343.537  498836.23 -157843.22 -340993.01 -578.11791
  20500     .0205  222651.694 519228.715 -25885.696 545114.411 -296577.02 -248537.39 -862.85655
  21000      .021  118412.442 542372.618 -34732.775 577105.392 -423960.18 -153145.22 -1157.7592
  21500     .0215  5529.13306 539760.872 -43023.974 582784.846 -534231.74 -48553.107 -1434.1325
  22000      .022  -112398.16 511071.857  -48510.04 559581.897 -623470.02 63888.1212 -1617.0013
  22500     .0225   -219431.9 472577.695 -50700.401 523278.096 -692009.59 168731.495 -1690.0134
  23000      .023  -309614.83 430884.263 -49992.608 480876.871 -740499.09 259622.223 -1666.4203
  23500     .0235  -383958.97 381432.086 -47240.067 428672.152 -765391.06 336718.903 -1574.6689
  24000      .024  -443591.04 320474.626 -42807.248 363281.875 -764065.67 400783.793 -1426.9083
  24500     .0245  -486973.14 248325.291 -36936.147 285261.438 -735298.43 450036.991 -1231.2049
  25000      .025  -512040.15 167974.745 -30308.185 198282.929  -680014.9  481731.97 -1010.2728
  25500     .0255  -520847.28 80268.3765 -23240.935 103509.311 -601115.66 497606.344 -774.69783
  26000      .026  -514168.23 -13182.976 -15128.641 1945.66462 -500985.25 499039.589 -504.28802
  26500     .0265  -492104.44 -110553.82 -5566.6684 -104987.15 -381550.62 486537.776 -185.55561
  27000      .027  -455697.71 -209204.08 4954.99832 -214159.07 -246493.64 460652.712 165.166611
  27500     .0275  -405762.51 -304575.41 15675.6898  -320251.1  -101187.1 421438.198 522.522993
  28000      .028  -343104.21 -391405.71  26018.897 -417424.61 48301.4931 369123.112 867.296567
  28500     .0285  -268256.27  -464316.7 35502.5602 -499819.26  196060.43 303758.835 1183.41867
  29000      .029  -182272.37 -519115.73 43555.1971 -562670.92 336843.353 225827.569  1451.8399
  29500     .0295  -88806.182 -554180.35 49771.9934 -603952.35 465374.173 138578.176 1659.06645
  30000       .03  8039.39748 -568555.86 54112.8065 -622668.67  576595.26 46073.4091 1803.76022
  30500     .0305  105710.208 -560603.95 56682.0816 -617286.03  666314.16 -49028.127 1889.40272
  31000      .031   202171.93 -529193.36 57560.2792 -586753.64 731365.294 -144611.65 1918.67597
  31500     .0315   294207.58 -475397.04 56755.5215 -532152.56 769604.615 -237452.06 1891.85072
  32000      .032  377634.876 -402442.26 54275.4769 -456717.73 780077.134  -323359.4 1809.18256
  32500     .0325  448559.202 -314386.52 50147.1004 -364533.62 762945.718  -398412.1 1671.57001
  33000      .033  503895.989 -215424.83 44363.7169 -259788.55 719320.823 -459532.27 1478.79056
  33500     .0335  541084.921  -110011.4  36979.678 -146991.08 651096.323 -504105.24 1232.65593
  34000      .034  558202.592 -2625.5799 28250.0201   -30875.6 560828.172 -529952.57 941.667336
  34500     .0345  554077.118 102437.336 18591.2253 83846.1105 451639.782 -535485.89 619.707511
  35000      .035  528503.597 201264.691 8432.76816 192831.923 327238.906 -520070.83 281.092272
  35500     .0355  482421.833 290634.011 -1846.4557 292480.467 191787.821 -484268.29 -61.548522
  36000      .036  417873.909 368162.331 -11890.343 380052.674 49711.5775 -429764.25 -396.34478
  36500     .0365  337887.232 432262.169 -21360.112 453622.281 -94374.937 -359247.34 -712.00374
  37000      .037  246089.726 481812.357 -29968.406 511780.763 -235722.63 -276058.13 -998.94686
  37500     .0375  146214.946 515761.785 -37474.683 553236.468 -369546.84 -183689.63 -1249.1561
  38000      .038  42017.5544 533137.015 -43648.773 576785.788 -491119.46 -85666.327 -1454.9591
  38500     .0385   -62601.82 533360.715 -48261.064 581621.779 -595962.54 14340.7566 -1608.7021
  39000      .039  -163690.21 516423.554 -51107.065 567530.619 -680113.77 112583.147 -1703.5688
  39500     .0395  -257585.62 482737.397 -52039.673 534777.071 -740323.02 205545.951 -1734.6558
  40000       .04  -341181.35 432986.127 -50987.017 483973.144 -774167.48 290194.338 -1699.5672
  40500     .0405  -411923.48 368219.904 -47965.224 416185.128 -780143.39 363958.261 -1598.8408
  41000      .041  -467741.62 290037.379 -43091.809 333129.188   -757779. 424649.811 -1436.3936
  41500     .0415  -507070.95 200673.713 -36576.831 237250.544 -707744.66 470494.116 -1219.2277
  42000      .042  -528900.21 102972.743 -28689.695 131662.438 -631872.95 500210.517 -956.32316
  % % % % % %   Suspended simulation;  plot data space exhausted;  SPY SPACE is required.   LIMBUF =  340000.
  % % % % % %   Suspended simulation;  plot data space exhausted;  SPY SPACE is required.   LIMBUF =  340000.
  +++  Time-sharing disabled.   Send  user-keyed interrupt to silence alarm.
