   ---   55   cards of disk file read into card cache cells  1   onward.
 <===> Done with  "/"-card sorting by data class.    Remember that the source file appears different from interpreted input data.
Alternative Transients Program (ATP),  F77 GNU Linux or DOS.  All rights reserved by Can/Am user group of Portland, Oregon, USA.
 Date (dd-mth-yy) and time of day (hh.mm.ss) = 11-Nov-18  11.00.00    Name of disk plot file, if any, is
Consult the 860-page ATP Rule Book of the Can/Am EMTP User Group in Portland,  Oregon, USA.  Source code date is
Total size of LABCOM tables = 16446853 INTEGER words.  31 VARDIM  List Sizes follow:  6002  10K  192K  900  420K  1200  15K
  120K  2250  3800  720  2K  72800  510  800K  800  90  254  800K  100K  3K  15K  192K  120  45K  260K  600  210K  1100  19  200K
--------------------------------------------------+--------------------------------------------------------------------------------
Descriptive interpretation of input data cards.   |  Input data card images are shown below, all 80 columns, character by character
                                                  0         1         2         3         4         5         6         7         8
                                                  012345678901234567890123456789012345678901234567890123456789012345678901234567890
--------------------------------------------------+--------------------------------------------------------------------------------
Comment card.   KOMPAR > 0.                       |C data:Caso0_ReEnergizacao_Convenc_RPI.atp
Marker card preceding new EMTP data case.         |BEGIN NEW DATA CASE
Comment card.   KOMPAR > 0.                       |C $DUMMY, XYZ000
Misc. data.     1.000E-06   1.000E+00   0.000E+00 |   1.E-6      1.
Misc. data.  500  1  0  0  1  0  0  1  300  0     |     500       1       0       0       1       0       0       1     300
Statistics data.      1    1    0    0    1    0  |       1       1       0       0       1      -1                               0
Series R-L-C.   5.000E+00  7.500E-02  0.000E+00   |  X0001AX0007A                5.   75.                                         0
Series R-L-C.   5.000E+00  7.500E-02  0.000E+00   |  X0001BX0007B                5.   75.                                         0
Series R-L-C.   5.000E+00  7.500E-02  0.000E+00   |  X0001CX0007C                5.   75.                                         0
Series R-L-C.   2.000E+02  0.000E+00  0.000E+00   |  X0007AX0001A              200.                                               0
Series R-L-C.   2.000E+02  0.000E+00  0.000E+00   |  X0007BX0001B              200.                                               0
Series R-L-C.   2.000E+02  0.000E+00  0.000E+00   |  X0007CX0001C              200.                                               0
Series R-L-C.   1.516E+00  1.608E+00  0.000E+00   |  X0003BXX0008            1.5155 1608.                                         0
Series R-L-C.   1.516E+00  1.608E+00  0.000E+00   |  X0003AXX0008            1.5155 1608.                                         0
Series R-L-C.   1.516E+00  1.608E+00  0.000E+00   |  X0003CXX0008            1.5155 1608.                                         0
Series R-L-C.   3.272E-01  3.472E-01  0.000E+00   |  XX0008                   .3272 347.2                                         0
Series R-L-C.   3.000E+01  0.000E+00  0.000E+00   |  XX0009                     30.                                               0
Series R-L-C.   9.000E+02  0.000E+00  0.000E+00   |  X0002AX0010A              900.                                               0
Series R-L-C.   9.000E+02  0.000E+00  0.000E+00   |  X0002BX0010B              900.                                               0
Series R-L-C.   9.000E+02  0.000E+00  0.000E+00   |  X0002CX0010C              900.                                               0
Dynamic $INCLUDE uses fixed RAM cache to delay.   |$INSERT, C:\SimulacaoATP\2\EXT1.pch
J. Marti line, mode  1   parameters begin.        |-1X0010AX0006C                2.  0.00              -2 3
J. Marti line, mode  2   parameters begin.        |-2X0010BX0006A                2.  0.00              -2 3
J. Marti line, mode  3   parameters begin.        |-3X0010CX0006B                2.  0.00              -2 3
TR(1,1 )...  0.667-0.707-0.317                    |  0.66668704 -0.70710678 -0.31743981
TI(1,1 )...  0.000 0.000 0.004                    |  0.00000000  0.00000000  0.00360196
TR(2,1 )...  0.333 0.000 0.894                    |  0.33285412  0.00000000  0.89350256
TI(2,1 )... -0.016 0.000 0.010                    | -0.01627623  0.00000000  0.00954818
TR(3,1 )...  0.667 0.707-0.317                    |  0.66668704  0.70710678 -0.31743981
TI(3,1 )...  0.000 0.000 0.004                    |  0.00000000  0.00000000  0.00360196
Dynamic $INCLUDE uses fixed RAM cache to delay.   |$INSERT, C:\SimulacaoATP\2\CONV2.pch
J. Marti line, mode  1   parameters begin.        |-1X0004AX0005C                2.  0.00              -2 3
J. Marti line, mode  2   parameters begin.        |-2X0004BX0005A                2.  0.00              -2 3
J. Marti line, mode  3   parameters begin.        |-3X0004CX0005B                2.  0.00              -2 3
TR(1,1 )...  0.667-0.707-0.317                    |  0.66668704 -0.70710678 -0.31743981
TI(1,1 )...  0.000 0.000 0.004                    |  0.00000000  0.00000000  0.00360196
TR(2,1 )...  0.333 0.000 0.894                    |  0.33285412  0.00000000  0.89350256
TI(2,1 )... -0.016 0.000 0.010                    | -0.01627623  0.00000000  0.00954818
TR(3,1 )...  0.667 0.707-0.317                    |  0.66668704  0.70710678 -0.31743981
TI(3,1 )...  0.000 0.000 0.004                    |  0.00000000  0.00000000  0.00360196
Dynamic $INCLUDE uses fixed RAM cache to delay.   |$INSERT, C:\SimulacaoATP\2\EXT3.pch
J. Marti line, mode  1   parameters begin.        |-1X0005AX0003A                2.  0.00              -2 3
J. Marti line, mode  2   parameters begin.        |-2X0005BX0003B                2.  0.00              -2 3
J. Marti line, mode  3   parameters begin.        |-3X0005CX0003C                2.  0.00              -2 3
TR(1,1 )...  0.667-0.707-0.317                    |  0.66668704 -0.70710678 -0.31743981
TI(1,1 )...  0.000 0.000 0.004                    |  0.00000000  0.00000000  0.00360196
TR(2,1 )...  0.333 0.000 0.894                    |  0.33285412  0.00000000  0.89350256
TI(2,1 )... -0.016 0.000 0.010                    | -0.01627623  0.00000000  0.00954818
TR(3,1 )...  0.667 0.707-0.317                    |  0.66668704  0.70710678 -0.31743981
TI(3,1 )...  0.000 0.000 0.004                    |  0.00000000  0.00000000  0.00360196
Dynamic $INCLUDE uses fixed RAM cache to delay.   |$INSERT, C:\SimulacaoATP\2\CONV4.pch
J. Marti line, mode  1   parameters begin.        |-1X0006AX0004C                2.  0.00              -2 3
J. Marti line, mode  2   parameters begin.        |-2X0006BX0004A                2.  0.00              -2 3
J. Marti line, mode  3   parameters begin.        |-3X0006CX0004B                2.  0.00              -2 3
TR(1,1 )...  0.667-0.707-0.317                    |  0.66668704 -0.70710678 -0.31743981
TI(1,1 )...  0.000 0.000 0.004                    |  0.00000000  0.00000000  0.00360196
TR(2,1 )...  0.333 0.000 0.894                    |  0.33285412  0.00000000  0.89350256
TI(2,1 )... -0.016 0.000 0.010                    | -0.01627623  0.00000000  0.00954818
TR(3,1 )...  0.667 0.707-0.317                    |  0.66668704  0.70710678 -0.31743981
TI(3,1 )...  0.000 0.000 0.004                    |  0.00000000  0.00000000  0.00360196
Blank card ending branches.  IBR, NTOT = 26  27   |BLANK BRANCH
Switch.   5.50E-02  1.00E-03  0.00E+00  3.33E+03  |  X0001BX0002B      .055      .001               3333.STATISTICS               0
Switch.   5.50E-02  1.00E-03  0.00E+00  3.33E+03  |  X0001AX0002A      .055      .001               3333.STATISTICS               0
Switch.   5.50E-02  1.00E-03  0.00E+00  3.33E+03  |  X0001CX0002C      .055      .001               3333.STATISTICS               0
Switch.   1.00E-02  1.00E-03  0.00E+00  0.00E+00  |  X0003CXX0009       .01      .001                    STATISTICS               1
Switch.   7.00E-01  1.00E-03  0.00E+00  0.00E+00  |  X0001BX0002B        .7      .001                    STATISTICS               0
Switch.   7.00E-01  1.00E-03  0.00E+00  0.00E+00  |  X0001AX0002A        .7      .001                    STATISTICS               0
Switch.   7.00E-01  1.00E-03  0.00E+00  0.00E+00  |  X0001CX0002C        .7      .001                    STATISTICS               0
Switch.   0.00E+00  6.98E-01  0.00E+00  0.00E+00  |  X0002AX0010A                .698                                             0
Switch.   0.00E+00  6.98E-01  0.00E+00  0.00E+00  |  X0002BX0010B                .698                                             0
Switch.   0.00E+00  6.98E-01  0.00E+00  0.00E+00  |  X0002CX0010C                .698                                             0
Switch.   7.10E-01  0.00E+00  0.00E+00  0.00E+00  |  X0002AX0010A       .71                                                       0
Switch.   7.10E-01  0.00E+00  0.00E+00  0.00E+00  |  X0002BX0010B       .71                                                       0
Switch.   7.10E-01  0.00E+00  0.00E+00  0.00E+00  |  X0002CX0010C       .71                                                       0
Blank card ending switches.   KSWTCH = 13.        |BLANK SWITCH
Source.   4.29E+05  6.00E+01  0.00E+00 -1.00E+00  |14X0007A  428660.705       60.                                     -1.      100.
Source.   4.29E+05  6.00E+01 -1.20E+02 -1.00E+00  |14X0007B  428660.705       60.     -120.                           -1.      100.
Source.   4.29E+05  6.00E+01 -2.40E+02 -1.00E+00  |14X0007C  428660.705       60.     -240.                           -1.      100.
Blank card ends electric sources.  KCONST = 3     |BLANK SOURCE

     Total network loss  P-loss  by summing injections =   2.151684236218E+08

Card of names for time-step loop output.          |  X0003AX0003BX0003C
Output voltage differences for pairs of A6 names  |-5X0003BX0003CX0003AX0003BX0003CX0003A
Blank card ending requests for output variables.  |BLANK OUTPUT

Column headings for the  7   EMTP output variables follow.  These are divided among the 5 possible classes as follows ....
  First  6     output variables are electric-network voltage differences (upper voltage minus lower voltage);
  Next   1     output variables are branch currents (flowing from the upper node to the lower node);
   Step      Time      X0003A     X0003B     X0003C     X0003B     X0003A     X0003C     X0003C
                                                        X0003C     X0003B     X0003A     XX0009
 ***      Phasor I(0) =  2.1726922E+01                     Switch  "X0001B"  to  "X0002B"  closed in the steady-state.
 ***      Phasor I(0) =  3.3623675E+02                     Switch  "X0001A"  to  "X0002A"  closed in the steady-state.
 ***      Phasor I(0) = -3.5500775E+02                     Switch  "X0001C"  to  "X0002C"  closed in the steady-state.
 ***                    Switch  "X0002A"  to  "X0010A"  closed  after  0.00000000E+00  sec.
 ***                    Switch  "X0002B"  to  "X0010B"  closed  after  0.00000000E+00  sec.
 ***                    Switch  "X0002C"  to  "X0010C"  closed  after  0.00000000E+00  sec.
      0       0.0  129916.244 -244837.73 111666.038 -356503.77 374753.977 -18250.206        0.0
    500     .5E-3  165658.039 -237682.02 69925.7347 -307607.76 403340.061 -95732.304        0.0
   1000     .1E-2  196183.508  -222423.8 25250.8852 -247674.68 418607.306 -170932.62        0.0
   1500     .0015  219026.989  -199463.6 -20175.305  -179288.3 418490.593 -239202.29        0.0
   2000      .002  568460.186 -125101.42  -508206.5 383105.084 693561.605 -.107667E7        0.0
   2500     .0025  564754.077 32198.0723 -627102.87 659300.941 532556.005 -.119186E7        0.0
   3000      .003  508214.483 168791.468 -713247.99 882039.461 339423.015 -.122146E7        0.0
   3500     .0035    419668.8  274664.82 -733565.37  .100823E7  145003.98 -.115323E7        0.0
   4000      .004  310682.685 390619.206 -687422.58 .1078042E7 -79936.521 -998105.26        0.0
   4500     .0045  187674.913  498177.42 -632537.01 .1130714E7 -310502.51 -820211.92        0.0
   5000      .005  35081.8662 575481.227 -554768.72  .113025E7 -540399.36 -589850.59        0.0
   5500     .0055  -254500.16 608682.154 -306015.88 914698.033 -863182.32 -51515.715        0.0
   6000      .006   -461675.8 570120.722 -78914.619  649035.34  -.10318E7 382761.184        0.0
   6500     .0065    -576900.  505938.64 118578.002 387360.638 -.108284E7 695478.004        0.0
   7000      .007  -639525.78  429414.38 268432.274 160982.107 -.106894E7 907958.052        0.0
   7500     .0075  -663591.34  344147.67 355501.019 -11353.349 -.100774E7 .1019092E7        0.0
   8000      .008  -653325.03  238682.04 410352.449 -171670.41 -892007.07 .1063677E7        0.0
   8500     .0085  -606193.43 118450.852 445542.129 -327091.28 -724644.28 .1051736E7        0.0
   9000      .009  -483800.33 4095.30134 410716.976 -406621.68 -487895.63 894517.307        0.0
   9500     .0095  -336913.44 -81107.853  344128.12 -425235.97 -255805.59 681041.559        0.0
  10000       .01  -214086.62 -140222.06 278952.261 -419174.32 -73864.559 493038.877        0.0
 ***                                                             Close switch  "X0003C"  to  "XX0009"  after  1.00010000E-02  sec.
  10500     .0105  -172001.71 -243352.24 22295.2698 -265647.51 71350.5351 194296.977  743.17566
  11000      .011  -96843.087 -284269.06 21634.2368  -305903.3 187425.974 118477.323 721.141227
  11500     .0115  -39597.206 -328001.57 23272.1504 -351273.72  288404.36 62869.3565 775.738345
  12000      .012  -6745.8696 -370869.74 27790.6518  -398660.4 364123.875 34536.5214 926.355061
  12500     .0125  2388.51392 -392903.34 32472.3811 -425375.72  395291.85 30083.8672  1082.4127
  13000      .013   6121.6863 -416572.08 37082.1348 -453654.21 422693.762 30960.4485 1236.07116
  13500     .0135  -35036.208 -460783.69 43105.0472 -503888.74 425747.484  78141.255 1436.83491
  14000      .014  -64807.275 -545398.41 54691.1583 -600089.57 480591.139 119498.434 1823.03861
  14500     .0145  27959.8764 -522819.84 62206.1191 -585025.96 550779.719 34246.2427  2073.5373
  15000      .015  124627.845 -481002.11 62618.4237 -543620.54 605629.958 -62009.421 2087.28079
  15500     .0155  217343.794 -432241.82 56517.9731  -488759.8 649585.616 -160825.82 1883.93244
  16000      .016  322689.882 -374004.99 47523.1515 -421528.15 696694.876 -275166.73 1584.10505
  16500     .0165   433979.04 -296587.97   37433.69 -334021.66 730567.006 -396545.35 1247.78967
  17000      .017  542445.554 -191319.49 25725.9162 -217045.41 733765.049 -516719.64 857.530539
  17500     .0175  622039.545 -67281.083 14046.0417 -81327.125 689320.628  -607993.5 468.201391
  18000      .018  661191.521 75127.3689 6749.01698 68378.3519 586064.152  -654442.5 224.967233
  18500     .0185  662775.241 218729.704 1883.63924 216846.064 444045.537  -660891.6 62.7879746
  19000      .019  621529.226 345816.957 -5116.7224 350933.679 275712.269 -626645.95 -170.55741
  19500     .0195  539512.866 455334.247 -13687.129 469021.377 84178.6186   -553200. -456.23765
  20000       .02  420240.026 542448.693 -22764.331 565213.024 -122208.67 -443004.36 -758.81102
  20500     .0205  276585.826 601817.365 -31603.672 633421.037 -325231.54  -308189.5 -1053.4557
  21000      .021  122420.187 629092.431 -39963.746 669056.177 -506672.24 -162383.93 -1332.1249
  21500     .0215   -36713.93 615450.116 -46891.846 662341.962 -652164.05 -10177.916 -1563.0615
  22000      .022  -188533.83 566211.542 -50922.819  617134.36 -754745.37 137611.008 -1697.4273
  22500     .0225  -315082.67 499398.474   -52219.1 551617.574 -814481.14 262863.568 -1740.6367
  23000      .023  -409685.92 424075.548 -51419.019 475494.568 -833761.47 358266.901 -1713.9673
  23500     .0235  -473057.73 341336.468 -49191.724 390528.191  -814394.2 423866.005 -1639.7241
  24000      .024  -508510.15 253370.702  -45670.06 299040.762 -761880.85 462840.089 -1522.3353
  24500     .0245  -519848.53 164841.173 -40846.508 205687.681 -684689.71 479002.025 -1361.5503
  25000      .025  -511421.86 80902.6517  -34974.25 115876.901 -592324.51 476447.609 -1165.8083
  25500     .0255  -489905.44 2843.92341 -28013.366 30857.2889 -492749.36 461892.072 -933.77885
  26000      .026  -459738.25 -69568.905 -19446.918 -50121.987 -390169.35 440291.336 -648.23059
  26500     .0265   -424137.1 -138225.65 -9213.7376 -129011.91 -285911.45 414923.359 -307.12459
  27000      .027  -385727.43 -205251.31  1973.6696 -207224.98 -180476.12 387701.101 65.7889867
  27500     .0275  -344919.04 -271288.06  13255.679 -284543.74 -73630.981 358174.716 441.855965
  28000      .028  -300124.94 -335810.19 23980.7635 -359790.95 35685.2489 324105.702 799.358783
  28500     .0285  -248411.87 -397096.95 33647.9371 -430744.89 148685.083 282059.804  1121.5979
  29000      .029  -187199.69 -452770.46 41788.6181 -494559.08 265570.774 228988.306 1392.95394
  29500     .0295  -116209.93 -500391.84 48130.4001 -548522.24 384181.912  164340.33 1604.34667
  30000       .03  -35875.459 -536055.06 52659.5041 -588714.57 500179.605 88534.9633  1755.3168
  30500     .0305  53545.6909 -554198.04 55414.1686 -609612.21 607743.728 1868.47762 1847.13895
  31000      .031   150539.15 -549501.25 56391.1709 -605892.43 700040.404 -94147.979  1879.7057
  31500     .0315  250984.568 -518868.23 55551.9298 -574420.16 769852.795 -195432.64 1851.73099
  32000      .032  348719.566 -461901.61 52894.3067 -514795.92 810621.176 -295825.26 1763.14356
  32500     .0325  437092.938 -380349.43 48470.7082 -428820.14 817442.373 -388622.23 1615.69027
  33000      .033  509980.929 -277827.41 42360.8118 -320188.22 787808.341 -467620.12 1412.02706
  33500     .0335  562104.307 -159809.55 34744.4499   -194554. 721913.853 -527359.86 1158.14833
  34000      .034  589498.409 -33126.944 25965.6509 -59092.595 622625.353 -563532.76 865.521696
  34500     .0345  589844.259 94619.4301 16452.2806 78167.1495 495224.829 -573391.98 548.409355
  35000      .035  562787.636 215794.839  6589.9236 209204.915 346992.797 -556197.71  219.66412
  35500     .0355  510073.861 323641.072 -3309.3219 326950.393  186432.79 -513383.18 -110.31073
  36000      .036  435289.804  412990.76 -12965.665 425956.425 22299.0436 -448255.47 -432.18884
  36500     .0365  343365.162   480621.8 -22111.129  502732.93 -137256.64 -365476.29 -737.03765
  37000      .037  239840.938 525141.082 -30499.193 555640.275 -285300.14 -270340.13 -1016.6398
  37500     .0375  130180.835  546638.42 -37891.856 584530.275 -416457.58 -168072.69 -1263.0619
  38000      .038  19493.7627 546494.042 -44038.609 590532.652 -527000.28 -63532.372 -1467.9536
  38500     .0385  -87571.423 527228.471 -48685.357 575913.829 -614799.89 38886.0657 -1622.8452
  39000      .039  -187047.32 492084.764 -51607.019 543691.783 -679132.08   135440.3  -1720.234
  39500     .0395  -275919.59 444347.742 -52639.931 496987.673 -720267.33  223279.66 -1754.6644
  40000       .04  -352186.72  386772.62 -51699.648 438472.268 -738959.34 300487.071 -1723.3216
  40500     .0405  -414637.76 321381.442 -48791.997 370173.439  -736019.2 365845.763 -1626.3999
  41000      .041  -462573.11 249531.543 -44019.789 293551.332 -712104.66 418553.323 -1467.3263
  41500     .0415  -495613.01 172105.521 -37570.534 209676.055 -667718.53 458042.476 -1252.3511
  42000      .042  -513564.02 89760.8398 -29690.019 119450.858 -603324.86 483874.003 -989.66728
  % % % % % %   Suspended simulation;  plot data space exhausted;  SPY SPACE is required.   LIMBUF =  340000.
  % % % % % %   Suspended simulation;  plot data space exhausted;  SPY SPACE is required.   LIMBUF =  340000.
  +++  Time-sharing disabled.   Send  user-keyed interrupt to silence alarm.
