   ---   55   cards of disk file read into card cache cells  1   onward.
 <===> Done with  "/"-card sorting by data class.    Remember that the source file appears different from interpreted input data.
Alternative Transients Program (ATP),  F77 GNU Linux or DOS.  All rights reserved by Can/Am user group of Portland, Oregon, USA.
 Date (dd-mth-yy) and time of day (hh.mm.ss) = 11-Nov-18  11.00.00    Name of disk plot file, if any, is
Consult the 860-page ATP Rule Book of the Can/Am EMTP User Group in Portland,  Oregon, USA.  Source code date is
Total size of LABCOM tables = 16446853 INTEGER words.  31 VARDIM  List Sizes follow:  6002  10K  192K  900  420K  1200  15K
  120K  2250  3800  720  2K  72800  510  800K  800  90  254  800K  100K  3K  15K  192K  120  45K  260K  600  210K  1100  19  200K
--------------------------------------------------+--------------------------------------------------------------------------------
Descriptive interpretation of input data cards.   |  Input data card images are shown below, all 80 columns, character by character
                                                  0         1         2         3         4         5         6         7         8
                                                  012345678901234567890123456789012345678901234567890123456789012345678901234567890
--------------------------------------------------+--------------------------------------------------------------------------------
Comment card.   KOMPAR > 0.                       |C data:Caso0_ReEnergizacao_Convenc_RPI.atp
Marker card preceding new EMTP data case.         |BEGIN NEW DATA CASE
Comment card.   KOMPAR > 0.                       |C $DUMMY, XYZ000
Misc. data.     1.000E-06   1.000E+00   0.000E+00 |   1.E-6      1.
Misc. data.  500  1  0  0  1  0  0  1  300  0     |     500       1       0       0       1       0       0       1     300
Statistics data.      1    1    0    0    1    0  |       1       1       0       0       1      -1                               0
Series R-L-C.   5.000E+00  7.500E-02  0.000E+00   |  X0001AX0007A                5.   75.                                         0
Series R-L-C.   5.000E+00  7.500E-02  0.000E+00   |  X0001BX0007B                5.   75.                                         0
Series R-L-C.   5.000E+00  7.500E-02  0.000E+00   |  X0001CX0007C                5.   75.                                         0
Series R-L-C.   2.000E+02  0.000E+00  0.000E+00   |  X0007AX0001A              200.                                               0
Series R-L-C.   2.000E+02  0.000E+00  0.000E+00   |  X0007BX0001B              200.                                               0
Series R-L-C.   2.000E+02  0.000E+00  0.000E+00   |  X0007CX0001C              200.                                               0
Series R-L-C.   1.516E+00  1.608E+00  0.000E+00   |  X0003BXX0008            1.5155 1608.                                         0
Series R-L-C.   1.516E+00  1.608E+00  0.000E+00   |  X0003AXX0008            1.5155 1608.                                         0
Series R-L-C.   1.516E+00  1.608E+00  0.000E+00   |  X0003CXX0008            1.5155 1608.                                         0
Series R-L-C.   3.272E-01  3.472E-01  0.000E+00   |  XX0008                   .3272 347.2                                         0
Series R-L-C.   3.000E+01  0.000E+00  0.000E+00   |  XX0009                     30.                                               0
Series R-L-C.   1.000E+03  0.000E+00  0.000E+00   |  X0002AX0010A              1.E3                                               0
Series R-L-C.   1.000E+03  0.000E+00  0.000E+00   |  X0002BX0010B              1.E3                                               0
Series R-L-C.   1.000E+03  0.000E+00  0.000E+00   |  X0002CX0010C              1.E3                                               0
Dynamic $INCLUDE uses fixed RAM cache to delay.   |$INSERT, C:\SimulacaoATP\3\EXT1.pch
J. Marti line, mode  1   parameters begin.        |-1X0010AX0006C                2.  0.00              -2 3
J. Marti line, mode  2   parameters begin.        |-2X0010BX0006A                2.  0.00              -2 3
J. Marti line, mode  3   parameters begin.        |-3X0010CX0006B                2.  0.00              -2 3
TR(1,1 )...  0.667-0.707-0.317                    |  0.66668704 -0.70710678 -0.31743981
TI(1,1 )...  0.000 0.000 0.004                    |  0.00000000  0.00000000  0.00360196
TR(2,1 )...  0.333 0.000 0.894                    |  0.33285412  0.00000000  0.89350256
TI(2,1 )... -0.016 0.000 0.010                    | -0.01627623  0.00000000  0.00954818
TR(3,1 )...  0.667 0.707-0.317                    |  0.66668704  0.70710678 -0.31743981
TI(3,1 )...  0.000 0.000 0.004                    |  0.00000000  0.00000000  0.00360196
Dynamic $INCLUDE uses fixed RAM cache to delay.   |$INSERT, C:\SimulacaoATP\3\CONV2.pch
J. Marti line, mode  1   parameters begin.        |-1X0004AX0005C                2.  0.00              -2 3
J. Marti line, mode  2   parameters begin.        |-2X0004BX0005A                2.  0.00              -2 3
J. Marti line, mode  3   parameters begin.        |-3X0004CX0005B                2.  0.00              -2 3
TR(1,1 )...  0.667-0.707-0.317                    |  0.66668704 -0.70710678 -0.31743981
TI(1,1 )...  0.000 0.000 0.004                    |  0.00000000  0.00000000  0.00360196
TR(2,1 )...  0.333 0.000 0.894                    |  0.33285412  0.00000000  0.89350256
TI(2,1 )... -0.016 0.000 0.010                    | -0.01627623  0.00000000  0.00954818
TR(3,1 )...  0.667 0.707-0.317                    |  0.66668704  0.70710678 -0.31743981
TI(3,1 )...  0.000 0.000 0.004                    |  0.00000000  0.00000000  0.00360196
Dynamic $INCLUDE uses fixed RAM cache to delay.   |$INSERT, C:\SimulacaoATP\3\EXT3.pch
J. Marti line, mode  1   parameters begin.        |-1X0005AX0003A                2.  0.00              -2 3
J. Marti line, mode  2   parameters begin.        |-2X0005BX0003B                2.  0.00              -2 3
J. Marti line, mode  3   parameters begin.        |-3X0005CX0003C                2.  0.00              -2 3
TR(1,1 )...  0.667-0.707-0.317                    |  0.66668704 -0.70710678 -0.31743981
TI(1,1 )...  0.000 0.000 0.004                    |  0.00000000  0.00000000  0.00360196
TR(2,1 )...  0.333 0.000 0.894                    |  0.33285412  0.00000000  0.89350256
TI(2,1 )... -0.016 0.000 0.010                    | -0.01627623  0.00000000  0.00954818
TR(3,1 )...  0.667 0.707-0.317                    |  0.66668704  0.70710678 -0.31743981
TI(3,1 )...  0.000 0.000 0.004                    |  0.00000000  0.00000000  0.00360196
Dynamic $INCLUDE uses fixed RAM cache to delay.   |$INSERT, C:\SimulacaoATP\3\CONV4.pch
J. Marti line, mode  1   parameters begin.        |-1X0006AX0004C                2.  0.00              -2 3
J. Marti line, mode  2   parameters begin.        |-2X0006BX0004A                2.  0.00              -2 3
J. Marti line, mode  3   parameters begin.        |-3X0006CX0004B                2.  0.00              -2 3
TR(1,1 )...  0.667-0.707-0.317                    |  0.66668704 -0.70710678 -0.31743981
TI(1,1 )...  0.000 0.000 0.004                    |  0.00000000  0.00000000  0.00360196
TR(2,1 )...  0.333 0.000 0.894                    |  0.33285412  0.00000000  0.89350256
TI(2,1 )... -0.016 0.000 0.010                    | -0.01627623  0.00000000  0.00954818
TR(3,1 )...  0.667 0.707-0.317                    |  0.66668704  0.70710678 -0.31743981
TI(3,1 )...  0.000 0.000 0.004                    |  0.00000000  0.00000000  0.00360196
Blank card ending branches.  IBR, NTOT = 26  27   |BLANK BRANCH
Switch.   5.50E-02  1.00E-03  0.00E+00  3.33E+03  |  X0001BX0002B      .055      .001               3333.STATISTICS               0
Switch.   5.50E-02  1.00E-03  0.00E+00  3.33E+03  |  X0001AX0002A      .055      .001               3333.STATISTICS               0
Switch.   5.50E-02  1.00E-03  0.00E+00  3.33E+03  |  X0001CX0002C      .055      .001               3333.STATISTICS               0
Switch.   1.00E-02  1.00E-03  0.00E+00  0.00E+00  |  X0003CXX0009       .01      .001                    STATISTICS               1
Switch.   7.00E-01  1.00E-03  0.00E+00  0.00E+00  |  X0001BX0002B        .7      .001                    STATISTICS               0
Switch.   7.00E-01  1.00E-03  0.00E+00  0.00E+00  |  X0001AX0002A        .7      .001                    STATISTICS               0
Switch.   7.00E-01  1.00E-03  0.00E+00  0.00E+00  |  X0001CX0002C        .7      .001                    STATISTICS               0
Switch.   0.00E+00  6.98E-01  0.00E+00  0.00E+00  |  X0002AX0010A                .698                                             0
Switch.   0.00E+00  6.98E-01  0.00E+00  0.00E+00  |  X0002BX0010B                .698                                             0
Switch.   0.00E+00  6.98E-01  0.00E+00  0.00E+00  |  X0002CX0010C                .698                                             0
Switch.   7.10E-01  0.00E+00  0.00E+00  0.00E+00  |  X0002AX0010A       .71                                                       0
Switch.   7.10E-01  0.00E+00  0.00E+00  0.00E+00  |  X0002BX0010B       .71                                                       0
Switch.   7.10E-01  0.00E+00  0.00E+00  0.00E+00  |  X0002CX0010C       .71                                                       0
Blank card ending switches.   KSWTCH = 13.        |BLANK SWITCH
Source.   4.29E+05  6.00E+01  0.00E+00 -1.00E+00  |14X0007A  428660.705       60.                                     -1.      100.
Source.   4.29E+05  6.00E+01 -1.20E+02 -1.00E+00  |14X0007B  428660.705       60.     -120.                           -1.      100.
Source.   4.29E+05  6.00E+01 -2.40E+02 -1.00E+00  |14X0007C  428660.705       60.     -240.                           -1.      100.
Blank card ends electric sources.  KCONST = 3     |BLANK SOURCE

     Total network loss  P-loss  by summing injections =   2.051611151345E+08

Card of names for time-step loop output.          |  X0003AX0003BX0003C
Output voltage differences for pairs of A6 names  |-5X0003BX0003CX0003AX0003BX0003CX0003A
Blank card ending requests for output variables.  |BLANK OUTPUT

Column headings for the  7   EMTP output variables follow.  These are divided among the 5 possible classes as follows ....
  First  6     output variables are electric-network voltage differences (upper voltage minus lower voltage);
  Next   1     output variables are branch currents (flowing from the upper node to the lower node);
   Step      Time      X0003A     X0003B     X0003C     X0003B     X0003A     X0003C     X0003C
                                                        X0003C     X0003B     X0003A     XX0009
 ***      Phasor I(0) =  2.9280487E+00                     Switch  "X0001B"  to  "X0002B"  closed in the steady-state.
 ***      Phasor I(0) =  3.2038622E+02                     Switch  "X0001A"  to  "X0002A"  closed in the steady-state.
 ***      Phasor I(0) = -3.2059124E+02                     Switch  "X0001C"  to  "X0002C"  closed in the steady-state.
 ***                    Switch  "X0002A"  to  "X0010A"  closed  after  0.00000000E+00  sec.
 ***                    Switch  "X0002B"  to  "X0010B"  closed  after  0.00000000E+00  sec.
 ***                    Switch  "X0002C"  to  "X0010C"  closed  after  0.00000000E+00  sec.
      0       0.0  111311.226 -227294.56 112495.387 -339789.95 338605.785 1184.16087        0.0
    500     .5E-3  145631.623 -222641.62 74616.5114 -297258.13 368273.241 -71015.111        0.0
   1000     .1E-2  175361.382 -210389.33 33646.5462 -244035.88 385750.714 -141714.84        0.0
   1500     .0015  198180.254 -190867.77  -8376.284 -182491.48 389048.022 -206556.54        0.0
   2000      .002  572044.314 -138266.22 -497136.65 358870.434 710310.534 -.106918E7        0.0
   2500     .0025  572759.976 13315.0843  -618725.8 632040.888 559444.891 -.119149E7        0.0
   3000      .003   519453.06 149464.621 -708717.34 858181.965 369988.439 -.122817E7        0.0
   3500     .0035  434518.979 256868.702 -733634.27 990502.972 177650.277 -.116815E7        0.0
   4000      .004  327615.585 375689.146 -691072.36 .1066762E7 -48073.561 -.101869E7        0.0
   4500     .0045  204850.106 487528.612 -639009.48 .1126538E7 -282678.51 -843859.59        0.0
   5000      .005   51191.604 569356.695  -563065.8 .1132422E7 -518165.09  -614257.4        0.0
   5500     .0055   -248018.1  612215.68   -313557. 925772.677 -860233.78 -65538.899        0.0
   6000      .006    -464210. 580962.312 -86300.026 667262.339 -.104517E7  377909.97        0.0
   6500     .0065  -584456.61 520611.694 113442.782 407168.912 -.110507E7 697899.389        0.0
   7000      .007   -650243.8 444974.948 267298.579 177676.369 -.109522E7 917542.383        0.0
   7500     .0075  -676958.96 358341.891 358413.547 -71.655901  -.10353E7 .1035373E7        0.0
   8000      .008  -667760.94 249639.448 416281.849  -166642.4 -917400.39 .1084043E7        0.0
   8500     .0085  -619481.96 124831.803 453382.003  -328550.2 -744313.76 .1072864E7        0.0
   9000      .009    -492853. 4622.53872 418125.852 -413503.31 -497475.54 910978.855        0.0
   9500     .0095  -339741.96 -87064.149 350503.641 -437567.79 -252677.81 690245.604        0.0
  10000       .01  -211403.97 -150900.22 283858.724 -434758.95 -60503.749 495262.695        0.0
 ***                                                             Close switch  "X0003C"  to  "XX0009"  after  1.00010000E-02  sec.
  10500     .0105  -165718.88  -256726.6 22546.1637 -279272.76 91007.7149 188265.047  751.53879
  11000      .011  -86797.754 -296819.92 21590.5266 -318410.45 210022.166  108388.28 719.684219
  11500     .0115  -27188.983 -338009.04 22931.0151 -360940.05 310820.057 50119.9978 764.367171
  12000      .012  5861.25601 -377104.15 27250.8555 -404355.01 382965.409 21389.5995 908.361849
  12500     .0125   12921.294 -394483.31  31842.469 -426325.78 407404.602  18921.175 1061.41563
  13000      .013    12734.06 -413208.15  36452.007 -449660.16 425942.208  23717.947  1215.0669
  13500     .0135  -33976.656 -453442.35 42590.3633 -496032.71  419465.69  76567.019 1419.67878
  14000      .014  -68873.805 -536308.82 54472.4959 -590781.31 467435.014   123346.3 1815.74986
  14500     .0145  21503.5443 -512065.11 62251.5731 -574316.68  533568.65 40748.0289 2075.05244
  15000      .015  116390.462 -470573.74 62779.0629  -533352.8 586964.199 -53611.399 2092.63543
  15500     .0155  208103.101 -424262.29 56634.3683 -480896.66 632365.395 -151468.73 1887.81228
  16000      .016   313864.61 -369994.95 47521.0684 -417516.02 683859.563 -266343.54 1584.03561
  16500     .0165  427117.082 -297177.08  37303.272 -334480.36 724294.167 -389813.81  1243.4424
  17000      .017  538761.602 -196168.88 25476.2752 -221645.15 734930.478 -513285.33 849.209174
  17500     .0175  621685.288 -75464.777 13726.3792 -89191.156 697150.065 -607958.91 457.545975
  18000      .018  663700.508 65165.3162 6480.76054 58684.5556 598535.192 -657219.75 216.025351
  18500     .0185  667580.431 208674.992 1728.49686 206946.495 458905.439 -665851.93 57.6165621
  19000      .019  627805.083 337229.324 -5202.4792 342431.803 290575.759 -633007.56 -173.41597
  19500     .0195  546223.975 449609.291 -13749.283 463358.575 96614.6839 -559973.26 -458.30945
  20000       .02  426196.464 540450.947 -22830.815 563281.762 -114254.48 -449027.28 -761.02715
  20500     .0205  280770.852 603712.969 -31686.534 635399.503 -322942.12 -312457.39 -1056.2178
  21000      .021  124245.458  634341.89 -40070.819 674412.708 -510096.43 -164316.28  -1335.694
  21500     .0215  -37454.891 622837.871 -47011.641 669849.512 -660292.76 -9556.7503 -1567.0547
  22000      .022  -191594.83 574294.731 -51015.419 625310.151 -765889.57 140579.416  -1700.514
  22500     .0225  -319753.31 506901.911 -52253.979  559155.89 -826655.22 267499.328 -1741.7993
  23000      .023   -415062.6 429879.404 -51391.868 481271.272   -844942. 363670.732 -1713.0623
  23500     .0235   -478238.1 344521.657 -49124.998 393646.655 -822759.76 429113.106 -1637.4999
  24000      .024  -512704.09 253423.288 -45595.328 299018.616 -766127.38  467108.76 -1519.8443
  24500     .0245   -522471.7 161816.079 -40791.954 202608.034 -684287.78 481679.746 -1359.7318
  25000      .025  -512188.04 75423.9986 -34962.487 110386.486 -587612.04 477225.553 -1165.4162
  25500     .0255  -488892.38 -4095.0378 -28052.753 23957.7155 -484797.34 460839.626 -935.09178
  26000      .026  -457300.84 -76801.687 -19522.553 -57279.135 -380499.16 437778.292 -650.75176
  26500     .0265  -420813.34 -144602.34 -9298.3044 -135304.04   -276211. 411515.037 -309.94348
  27000      .027  -382153.87 -209803.27 1902.12236 -211705.39  -172350.6 384055.991 63.4040786
  27500     .0275  -341722.85 -273362.53 13208.4416 -286570.97 -68360.321 354931.295 440.281385
  28000      .028  -297823.33 -335181.68 23961.2512 -359142.93 37358.3476 321784.584 798.708375
  28500     .0285  -247325.56 -394004.24 33654.2044 -427658.45 146678.679 280979.769 1121.80681
  29000      .029  -187417.81 -447865.37 41813.8505 -489679.22 260447.562 229231.656 1393.79502
  29500     .0295  -117621.77 -494616.19 48166.7622 -542782.95 376994.419 165788.532 1605.55874
  30000       .03  -38197.979 -530451.47 52703.0012 -583154.47 492253.487 90900.9801 1756.76671
  30500     .0305  50736.7665 -549712.69 55464.6555 -605177.35  600449.46 4727.88894 1848.82185
  31000      .031  147735.842 -546835.67 56449.4325 -603285.11 694571.516 -91286.409 1881.64775
  31500     .0315  248642.689 -518392.91 55616.6769 -574009.58 767035.596 -193026.01 1853.88923
  32000      .032  347171.548 -463618.35 52961.4699 -516579.82 810789.899 -294210.08 1765.38233
  32500     .0325  436505.148 -383900.45 48534.2645 -432434.71 820405.594 -387970.88 1617.80882
  33000      .033  510347.914 -282565.41 42413.8209 -324979.23 792913.327 -467934.09 1413.79403
  33500     .0335  563263.848 -164922.77 34781.5487 -199704.32 728186.614  -528482.3 1159.38496
  34000      .034  591167.786 -37784.064 25986.2456  -63770.31  628951.85 -565181.54 866.208186
  34500     .0345  591674.139 91131.6965 16461.4106 74670.2859 500542.442 -575212.73 548.713685
  35000      .035  564427.764  213962.42 6596.06859 207366.352 350465.343  -557831.7 219.868953
  35500     .0355  511237.152 323656.627 -3297.2734   326953.9 187580.525 -514534.43 -109.90911
  36000      .036  435798.837 414737.352 -12940.475 427677.827 21061.4847 -448739.31 -431.34915
  36500     .0365  343173.263 483706.994 -22068.423 505775.418 -140533.73 -365241.69 -735.61411
  37000      .037  239025.783   528972.8 -30438.268 559411.068 -289947.02 -269464.05 -1014.6089
  37500     .0375  128916.573 550528.432 -37815.504 588343.936 -421611.86 -166732.08 -1260.5168
  38000      .038  18013.4994 549774.884 -43951.787  593726.67 -531761.38 -61965.286 -1465.0596
  38500     .0385  -89016.498 529365.273   -48593.5 577958.773 -618381.77 40422.9975 -1619.7833
  39000      .039  -188230.06 492760.151 -51514.851 544275.002 -680990.21 136715.208 -1717.1617
  39500     .0395  -276675.41 443503.297 -52550.984 496054.281 -720178.71 224124.427 -1751.6995
  40000       .04   -352439.4 384603.238 -51616.215 436219.453 -737042.64 300823.183 -1720.5405
  40500     .0405  -414405.51  318289.28  -48715.28  367004.56 -732694.79 365690.231 -1623.8427
  41000      .041  -461956.38 246049.851 -43950.155 290000.006 -708006.24 418006.229 -1465.0052
  41500     .0415   -494770.2 168804.923 -37507.611 206312.534 -663575.13 457262.592 -1250.2537
  42000      .042   -512680.4 87153.3881  -29632.52 116785.908 -599833.79 483047.878 -987.75066
  % % % % % %   Suspended simulation;  plot data space exhausted;  SPY SPACE is required.   LIMBUF =  340000.
  % % % % % %   Suspended simulation;  plot data space exhausted;  SPY SPACE is required.   LIMBUF =  340000.
  +++  Time-sharing disabled.   Send  user-keyed interrupt to silence alarm.
