   ---   46   cards of disk file read into card cache cells  1   onward.
 <===> Done with  "/"-card sorting by data class.    Remember that the source file appears different from interpreted input data.
Alternative Transients Program (ATP),  F77 GNU Linux or DOS.  All rights reserved by Can/Am user group of Portland, Oregon, USA.
 Date (dd-mth-yy) and time of day (hh.mm.ss) = 11-Nov-18  11.00.00    Name of disk plot file, if any, is
Consult the 860-page ATP Rule Book of the Can/Am EMTP User Group in Portland,  Oregon, USA.  Source code date is
Total size of LABCOM tables = 16446853 INTEGER words.  31 VARDIM  List Sizes follow:  6002  10K  192K  900  420K  1200  15K
  120K  2250  3800  720  2K  72800  510  800K  800  90  254  800K  100K  3K  15K  192K  120  45K  260K  600  210K  1100  19  200K
--------------------------------------------------+--------------------------------------------------------------------------------
Descriptive interpretation of input data cards.   |  Input data card images are shown below, all 80 columns, character by character
                                                  0         1         2         3         4         5         6         7         8
                                                  012345678901234567890123456789012345678901234567890123456789012345678901234567890
--------------------------------------------------+--------------------------------------------------------------------------------
Comment card.   KOMPAR > 0.                       |C data:Caso0_ReEnergizacao_Convenc_SemControle.atp
Marker card preceding new EMTP data case.         |BEGIN NEW DATA CASE
Comment card.   KOMPAR > 0.                       |C $DUMMY, XYZ000
Misc. data.     1.000E-06   1.000E+00   0.000E+00 |   1.E-6      1.
Misc. data.  500  1  0  0  1  0  0  1  300  0     |     500       1       0       0       1       0       0       1     300
Statistics data.      1    1    0    0    1    0  |       1       1       0       0       1      -1                               0
Series R-L-C.   5.000E+00  7.500E-02  0.000E+00   |  X0001AX0007A                5.   75.                                         0
Series R-L-C.   5.000E+00  7.500E-02  0.000E+00   |  X0001BX0007B                5.   75.                                         0
Series R-L-C.   5.000E+00  7.500E-02  0.000E+00   |  X0001CX0007C                5.   75.                                         0
Series R-L-C.   2.000E+02  0.000E+00  0.000E+00   |  X0007AX0001A              200.                                               0
Series R-L-C.   2.000E+02  0.000E+00  0.000E+00   |  X0007BX0001B              200.                                               0
Series R-L-C.   2.000E+02  0.000E+00  0.000E+00   |  X0007CX0001C              200.                                               0
Series R-L-C.   1.516E+00  1.608E+00  0.000E+00   |  X0003BXX0008            1.5155 1608.                                         0
Series R-L-C.   1.516E+00  1.608E+00  0.000E+00   |  X0003AXX0008            1.5155 1608.                                         0
Series R-L-C.   1.516E+00  1.608E+00  0.000E+00   |  X0003CXX0008            1.5155 1608.                                         0
Series R-L-C.   3.272E-01  3.472E-01  0.000E+00   |  XX0008                   .3272 347.2                                         0
Series R-L-C.   3.000E+01  0.000E+00  0.000E+00   |  XX0009                     30.                                               0
Dynamic $INCLUDE uses fixed RAM cache to delay.   |$INSERT, C:\SimulacaoATP\EXT1.pch
J. Marti line, mode  1   parameters begin.        |-1X0002AX0006C                2.  0.00              -2 3
J. Marti line, mode  2   parameters begin.        |-2X0002BX0006A                2.  0.00              -2 3
J. Marti line, mode  3   parameters begin.        |-3X0002CX0006B                2.  0.00              -2 3
TR(1,1 )...  0.667-0.707-0.317                    |  0.66668704 -0.70710678 -0.31743981
TI(1,1 )...  0.000 0.000 0.004                    |  0.00000000  0.00000000  0.00360196
TR(2,1 )...  0.333 0.000 0.894                    |  0.33285412  0.00000000  0.89350256
TI(2,1 )... -0.016 0.000 0.010                    | -0.01627623  0.00000000  0.00954818
TR(3,1 )...  0.667 0.707-0.317                    |  0.66668704  0.70710678 -0.31743981
TI(3,1 )...  0.000 0.000 0.004                    |  0.00000000  0.00000000  0.00360196
Dynamic $INCLUDE uses fixed RAM cache to delay.   |$INSERT, C:\SimulacaoATP\CONV2.pch
J. Marti line, mode  1   parameters begin.        |-1X0004AX0005C                2.  0.00              -2 3
J. Marti line, mode  2   parameters begin.        |-2X0004BX0005A                2.  0.00              -2 3
J. Marti line, mode  3   parameters begin.        |-3X0004CX0005B                2.  0.00              -2 3
TR(1,1 )...  0.667-0.707-0.317                    |  0.66668704 -0.70710678 -0.31743981
TI(1,1 )...  0.000 0.000 0.004                    |  0.00000000  0.00000000  0.00360196
TR(2,1 )...  0.333 0.000 0.894                    |  0.33285412  0.00000000  0.89350256
TI(2,1 )... -0.016 0.000 0.010                    | -0.01627623  0.00000000  0.00954818
TR(3,1 )...  0.667 0.707-0.317                    |  0.66668704  0.70710678 -0.31743981
TI(3,1 )...  0.000 0.000 0.004                    |  0.00000000  0.00000000  0.00360196
Dynamic $INCLUDE uses fixed RAM cache to delay.   |$INSERT, C:\SimulacaoATP\EXT3.pch
J. Marti line, mode  1   parameters begin.        |-1X0005AX0003A                2.  0.00              -2 3
J. Marti line, mode  2   parameters begin.        |-2X0005BX0003B                2.  0.00              -2 3
J. Marti line, mode  3   parameters begin.        |-3X0005CX0003C                2.  0.00              -2 3
TR(1,1 )...  0.667-0.707-0.317                    |  0.66668704 -0.70710678 -0.31743981
TI(1,1 )...  0.000 0.000 0.004                    |  0.00000000  0.00000000  0.00360196
TR(2,1 )...  0.333 0.000 0.894                    |  0.33285412  0.00000000  0.89350256
TI(2,1 )... -0.016 0.000 0.010                    | -0.01627623  0.00000000  0.00954818
TR(3,1 )...  0.667 0.707-0.317                    |  0.66668704  0.70710678 -0.31743981
TI(3,1 )...  0.000 0.000 0.004                    |  0.00000000  0.00000000  0.00360196
Dynamic $INCLUDE uses fixed RAM cache to delay.   |$INSERT, C:\SimulacaoATP\CONV4.pch
J. Marti line, mode  1   parameters begin.        |-1X0006AX0004C                2.  0.00              -2 3
J. Marti line, mode  2   parameters begin.        |-2X0006BX0004A                2.  0.00              -2 3
J. Marti line, mode  3   parameters begin.        |-3X0006CX0004B                2.  0.00              -2 3
TR(1,1 )...  0.667-0.707-0.317                    |  0.66668704 -0.70710678 -0.31743981
TI(1,1 )...  0.000 0.000 0.004                    |  0.00000000  0.00000000  0.00360196
TR(2,1 )...  0.333 0.000 0.894                    |  0.33285412  0.00000000  0.89350256
TI(2,1 )... -0.016 0.000 0.010                    | -0.01627623  0.00000000  0.00954818
TR(3,1 )...  0.667 0.707-0.317                    |  0.66668704  0.70710678 -0.31743981
TI(3,1 )...  0.000 0.000 0.004                    |  0.00000000  0.00000000  0.00360196
Blank card ending branches.  IBR, NTOT = 23  24   |BLANK BRANCH
Switch.   5.50E-02  1.00E-03  0.00E+00  3.33E+03  |  X0001BX0002B      .055      .001               3333.STATISTICS               0
Switch.   5.50E-02  1.00E-03  0.00E+00  3.33E+03  |  X0001AX0002A      .055      .001               3333.STATISTICS               0
Switch.   5.50E-02  1.00E-03  0.00E+00  3.33E+03  |  X0001CX0002C      .055      .001               3333.STATISTICS               0
Switch.   1.00E-02  1.00E-03  0.00E+00  0.00E+00  |  X0003CXX0009       .01      .001                    STATISTICS               1
Switch.   7.00E-01  1.00E-03  0.00E+00  0.00E+00  |  X0001BX0002B        .7      .001                    STATISTICS               0
Switch.   7.00E-01  1.00E-03  0.00E+00  0.00E+00  |  X0001AX0002A        .7      .001                    STATISTICS               0
Switch.   7.00E-01  1.00E-03  0.00E+00  0.00E+00  |  X0001CX0002C        .7      .001                    STATISTICS               0
Blank card ending switches.   KSWTCH = 7.         |BLANK SWITCH
Source.   4.29E+05  6.00E+01  0.00E+00 -1.00E+00  |14X0007A  428660.705       60.                                     -1.      100.
Source.   4.29E+05  6.00E+01 -1.20E+02 -1.00E+00  |14X0007B  428660.705       60.     -120.                           -1.      100.
Source.   4.29E+05  6.00E+01 -2.40E+02 -1.00E+00  |14X0007C  428660.705       60.     -240.                           -1.      100.
Blank card ends electric sources.  KCONST = 3     |BLANK SOURCE

     Total network loss  P-loss  by summing injections =   3.381556290877E+06

Card of names for time-step loop output.          |  X0003AX0003BX0003C
Output voltage differences for pairs of A6 names  |-5X0003BX0003CX0003AX0003BX0003CX0003A
Blank card ending requests for output variables.  |BLANK OUTPUT

Column headings for the  7   EMTP output variables follow.  These are divided among the 5 possible classes as follows ....
  First  6     output variables are electric-network voltage differences (upper voltage minus lower voltage);
  Next   1     output variables are branch currents (flowing from the upper node to the lower node);
   Step      Time      X0003A     X0003B     X0003C     X0003B     X0003A     X0003C     X0003C
                                                        X0003C     X0003B     X0003A     XX0009
 ***      Phasor I(0) =  6.2644145E+02                     Switch  "X0001B"  to  "X0002B"  closed in the steady-state.
 ***      Phasor I(0) =  7.4558617E+00                     Switch  "X0001A"  to  "X0002A"  closed in the steady-state.
 ***      Phasor I(0) = -6.3876777E+02                     Switch  "X0001C"  to  "X0002C"  closed in the steady-state.
      0       0.0  452246.337 -229099.42 -215961.87 -13137.553 681345.761 -668208.21        0.0
    500     .5E-3  443351.712 -152641.65 -284635.64 131993.993  595993.36 -727987.35        0.0
   1000     .1E-2  420690.698 -71315.405 -342801.67 271486.262 492006.103 -763492.36        0.0
   1500     .0015  383137.549 13060.1334 -388921.09  401981.22 370077.416 -772058.64        0.0
   2000      .002  332658.168 96839.3181 -420866.11 517705.432  235818.85 -753524.28        0.0
   2500     .0025  270130.461  176896.58 -438579.08 615475.665 93233.8809 -708709.55        0.0
   3000      .003  198493.204 250362.694 -441237.45 691600.142  -51869.49 -639730.65        0.0
   3500     .0035  119900.955 315243.747 -427638.17 742881.922 -195342.79 -547539.13        0.0
   4000      .004  37201.7541 368884.901 -399223.45 768108.355 -331683.15 -436425.21        0.0
   4500     .0045   -47104.04 409602.807  -356713.8  766316.61 -456706.85 -309609.76        0.0
   5000      .005  -129783.02 436310.927  -301324.1 737635.032 -566093.95 -171541.08        0.0
   5500     .0055  -208082.16 447569.536  -235278.8 682848.336  -655651.7 -27196.639        0.0
   6000      .006  -279412.27 442935.964 -160950.84   603886.8 -722348.24 118461.437        0.0
   6500     .0065  -341228.39 422583.467 -80769.931 503353.399 -763811.86 260458.459        0.0
   7000      .007  -390934.11 387408.455 2355.63832 385052.817 -778342.57 393289.748        0.0
   7500     .0075   -426840.9 338543.357 85511.6783 253031.679 -765384.26 512352.582        0.0
   8000      .008  -447712.37 277530.887 165580.698 111950.189 -725243.25 613293.066        0.0
   8500     .0085  -452514.07 206534.169 239804.001 -33269.832 -659048.24 692318.075        0.0
   9000      .009   -441152.6 128061.014 305467.578 -177406.56 -569213.61 746620.177        0.0
   9500     .0095  -414030.37 44875.3137 360184.022 -315308.71 -458905.68 774214.391        0.0
  10000       .01   -371993.6 -39954.596 402022.322 -441976.92   -332039. 774015.922        0.0
 ***                                                             Close switch  "X0003C"  to  "XX0009"  after  1.00010000E-02  sec.
  10500     .0105  -420848.06 -231485.91 41339.9653 -272825.88 -189362.15 462188.024 1377.99884
  11000      .011  -365084.46  -309078.4 44334.2536 -353412.66 -56006.058 409418.716 1477.80845
  11500     .0115  -285888.16  -381003.2  46071.434 -427074.64 95115.0375 331959.599 1535.71447
  12000      .012  -207914.95 -457800.52 49581.2677 -507381.79 249885.565 257496.221 1652.70892
  12500     .0125  -113991.58  -496445.5 49614.3444 -546059.85 382453.926 163605.922 1653.81148
  13000      .013  9716.32704 -513686.45 45784.5273 -559470.98 523402.779 36068.2003 1526.15091
  13500     .0135  54996.9864 -536155.62 43222.5131 -579378.13 591152.605 -11774.473 1440.75044
  14000      .014  53995.8698 -622405.76 53438.6181 -675844.37 676401.625 -557.25166 1781.28727
  14500     .0145  191779.524 -561135.73 63898.5654  -625034.3 752915.254 -127880.96 2129.95218
  15000      .015  315236.644 -465418.93 69302.9517 -534721.89 780655.578 -245933.69 2310.09839
  15500     .0155  396208.561  -369580.6 66766.7228 -436347.32 765789.159 -329441.84 2225.55743
  16000      .016  460562.776 -276599.17 60069.4145 -336668.58 737161.945 -400493.36 2002.31382
  16500     .0165  513027.348 -175419.48 51167.2193  -226586.7 688446.831 -461860.13 1705.57398
  17000      .017  557825.899 -63772.145 37918.6741 -101690.82 621598.043 -519907.22  1263.9558
  17500     .0175  576434.867 40909.6419 22087.6803 18821.9616 535525.225 -554347.19  736.25601
  18000      .018  561286.383 146724.576 11725.5783 134998.998 414561.807  -549560.8 390.852608
  18500     .0185  526888.217 246599.018 6679.30823  239919.71 280289.198 -520208.91 222.643608
  19000      .019  473642.006 327726.433  274.21431 327452.219 145915.572 -473367.79   9.140477
  19500     .0195  405230.809  397621.13 -7624.1744 405245.304 7609.67899 -412854.98 -254.13915
  20000       .02  319531.361 456064.227 -16043.818 472108.045 -136532.87 -335575.18 -534.79394
  20500     .0205  223904.188 502837.182  -24564.38 527401.562 -278932.99 -248468.57 -818.81268
  21000      .021  124757.874  537951.18 -33646.439 571597.619 -413193.31 -158404.31  -1121.548
  21500     .0215  15044.2106 546915.051 -42379.375 589294.426 -531870.84 -57423.585 -1412.6458
  22000      .022  -102342.68 526891.664 -48176.666 575068.329 -629234.34 54166.0156 -1605.8889
  22500     .0225  -210204.74 494304.506 -50396.936 544701.441 -704509.24 159807.801 -1679.8979
  23000      .023  -302013.45  455653.22 -49471.556 505124.777 -757666.67 252541.895 -1649.0519
  23500     .0235  -378852.07  405530.81 -46412.178 451942.988 -784382.88 332439.889 -1547.0726
  24000      .024  -441642.64 340067.074 -41685.828 381752.902 -781709.71 399956.811 -1389.5276
  24500     .0245  -488108.02 260553.861 -35593.109  296146.97 -748661.88 452514.914  -1186.437
  25000      .025   -515506.1 171593.449  -28916.66 200510.109 -687099.55 486589.439 -963.88867
  25500     .0255   -525996.8 75355.2675 -22020.607 97375.8746 -601352.07 503976.192 -734.02024
  26000      .026  -520398.11 -25334.272  -14181.99 -11152.282 -495063.84  506216.12 -472.73299
  26500     .0265   -498649.2 -127639.87 -4848.5306 -122791.34 -371009.33 493800.674 -161.61769
  27000      .027   -461739.7 -228255.46 5532.72466 -233788.18 -233484.24 467272.422 184.424155
  27500     .0275  -410578.87 -322360.46 16187.6864 -338548.15 -88218.407 426766.556 539.589545
  28000      .028  -346240.09 -405003.37 26530.4184 -431533.78 58763.2708 372770.513  884.34728
  28500     .0285  -269489.37 -471575.55 36063.1098 -507638.66 202086.174 305552.481 1202.10366
  29000      .029  -181517.59 -518986.09 44165.4401 -563151.54 337468.501 225683.034 1472.18134
  29500     .0295  -86320.686 -546990.67  50390.454 -597381.13 460669.986  136711.14  1679.6818
  30000       .03  11628.8388 -555884.82 54705.4977 -610590.31 567513.655 43076.6588 1823.51659
  30500     .0305  109683.407 -544786.27 57249.1665 -602035.44  654469.68  -52434.24 1908.30555
  31000      .031  205938.309 -512813.35 58129.6385 -570942.98 718751.655 -147808.67 1937.65462
  31500     .0315  297305.917 -460942.84 57360.3246 -518303.16 758248.752 -239945.59 1912.01082
  32000      .032  379697.656 -391998.92  54940.784 -446939.71 771696.577 -324756.87 1831.35947
  32500     .0325  449364.179 -309290.72 50882.9595 -360173.68 758654.903 -398481.22 1696.09865
  33000      .033  503420.208 -216040.06 45151.7344 -261191.79 719460.269 -458268.47 1505.05781
  33500     .0335  539467.326 -115757.03 37771.6107 -153528.64 655224.353 -501695.72 1259.05369
  34000      .034  555688.107 -12162.045 28990.8441  -41152.89 567850.153 -526697.26 966.361468
  34500     .0345  550969.074 90942.4314 19244.8506 71697.5808 460026.642 -531724.22  641.49502
  35000      .035  525134.468 189825.977 8989.30182 180836.675 335308.491 -516145.17 299.643394
  35500     .0355  479131.725 281134.125 -1376.0539 282510.179   197997.6 -480507.78 -45.868463
  36000      .036  414983.263 362069.482 -11479.641 373549.123 52913.7805  -426462.9  -382.6547
  36500     .0365  335680.215 430431.002 -20973.597 451404.599 -94750.787 -356653.81 -699.11989
  37000      .037  244789.576 484387.888 -29573.294 513961.182 -239598.31 -274362.87 -985.77647
  37500     .0375  145930.322 522178.161 -37051.261 559229.422 -376247.84 -182981.58  -1235.042
  38000      .038  42705.7409 542227.577  -43191.73 585419.307 -499521.84 -85897.471 -1439.7243
  38500     .0385  -61119.867 543583.835 -47774.068 591357.903  -604703.7 13345.7998 -1592.4689
  39000      .039  -161684.37 526153.046 -50596.934 576749.981 -687837.41 111087.433 -1686.5645
  39500     .0395   -255378.8 490536.429 -51513.321  542049.75 -745915.23  203865.48 -1717.1107
  40000       .04   -339121.5 437817.722 -50450.086 488267.808 -776939.22 288671.413 -1681.6695
  40500     .0405  -410341.81 369584.249 -47422.024 417006.273 -779926.05 362919.781 -1580.7341
  41000      .041  -466899.45 288023.047 -42547.572 330570.619  -754922.5 424351.881 -1418.2524
  41500     .0415   -507120.2 195909.899 -36040.334 231950.234  -703030.1 471079.869 -1201.3445
  42000      .042  -529868.54 96492.0948 -28172.878 124664.973 -626360.64 501695.663 -939.09593
  % % % % % %   Suspended simulation;  plot data space exhausted;  SPY SPACE is required.   LIMBUF =  340000.
  % % % % % %   Suspended simulation;  plot data space exhausted;  SPY SPACE is required.   LIMBUF =  340000.
  +++  Time-sharing disabled.   Send  user-keyed interrupt to silence alarm.
   Current values.  INDBUF  INDBEG  LIMBUF  MFLUSH  NUMDCD  KCARD1  KCARD2
                    339994      50  340000    1000      37       1      41
Plot timespan now in memory (in sec) = 0.00000000E+00   4.24930000E-02
   ++++  Begin plot-data copy from memory to disk.   MFLUSH, INDBUF, N4, Tbeg,  Tend = 1001  339994       1  -1.00000E+00
1.00000E+19
  42500     .0425  -534573.67 -6686.5928  -19243.99 12557.3973 -527887.07 515329.677 -641.46634
  43000      .043  -521203.28  -109946.9 -9569.7192 -100377.18 -411256.38 511633.565 -318.99064
  43500     .0435  -490223.88 -209586.78 515.512673  -210102.3  -280637.1 490739.391 17.1837558
  44000      .044  -442571.37 -301970.71 10665.6543 -312636.37 -140600.65 453237.023 355.521812
  44500     .0445  -379630.73 -383639.23 20533.0842 -404172.31 4008.50074  400163.81  684.43614
  45000      .045   -303250.8 -451482.66 29773.8924 -481256.55 148231.854 333024.695  992.46308
  45500     .0455   -215782.7 -502947.83 38054.9441 -541002.77 287165.128 253837.642 1268.49814
  46000      .046  -120074.38 -536180.35 45069.3487  -581249.7 416105.963 165143.733 1502.31162
  46500     .0465  -19382.521 -550056.85 50555.8222 -600612.67 530674.326 69938.3429 1685.19407
  47000      .047  82763.6372 -544160.36 54313.8104 -598474.17    626924. -28449.827 1810.46035
  47500     .0475   182690.93 -518772.05 56211.7662 -574983.81 701462.976 -126479.16 1873.72554
