   ---   55   cards of disk file read into card cache cells  1   onward.
 <===> Done with  "/"-card sorting by data class.    Remember that the source file appears different from interpreted input data.
Alternative Transients Program (ATP),  F77 GNU Linux or DOS.  All rights reserved by Can/Am user group of Portland, Oregon, USA.
 Date (dd-mth-yy) and time of day (hh.mm.ss) = 11-Nov-18  11.00.00    Name of disk plot file, if any, is
Consult the 860-page ATP Rule Book of the Can/Am EMTP User Group in Portland,  Oregon, USA.  Source code date is
Total size of LABCOM tables = 16446853 INTEGER words.  31 VARDIM  List Sizes follow:  6002  10K  192K  900  420K  1200  15K
  120K  2250  3800  720  2K  72800  510  800K  800  90  254  800K  100K  3K  15K  192K  120  45K  260K  600  210K  1100  19  200K
--------------------------------------------------+--------------------------------------------------------------------------------
Descriptive interpretation of input data cards.   |  Input data card images are shown below, all 80 columns, character by character
                                                  0         1         2         3         4         5         6         7         8
                                                  012345678901234567890123456789012345678901234567890123456789012345678901234567890
--------------------------------------------------+--------------------------------------------------------------------------------
Comment card.   KOMPAR > 0.                       |C data:Caso0_ReEnergizacao_Convenc_RPI.atp
Marker card preceding new EMTP data case.         |BEGIN NEW DATA CASE
Comment card.   KOMPAR > 0.                       |C $DUMMY, XYZ000
Misc. data.     1.000E-06   1.000E+00   0.000E+00 |   1.E-6      1.
Misc. data.  500  1  0  0  1  0  0  1  300  0     |     500       1       0       0       1       0       0       1     300
Statistics data.      1    1    0    0    1    0  |       1       1       0       0       1      -1                               0
Series R-L-C.   5.000E+00  7.500E-02  0.000E+00   |  X0001AX0007A                5.   75.                                         0
Series R-L-C.   5.000E+00  7.500E-02  0.000E+00   |  X0001BX0007B                5.   75.                                         0
Series R-L-C.   5.000E+00  7.500E-02  0.000E+00   |  X0001CX0007C                5.   75.                                         0
Series R-L-C.   2.000E+02  0.000E+00  0.000E+00   |  X0007AX0001A              200.                                               0
Series R-L-C.   2.000E+02  0.000E+00  0.000E+00   |  X0007BX0001B              200.                                               0
Series R-L-C.   2.000E+02  0.000E+00  0.000E+00   |  X0007CX0001C              200.                                               0
Series R-L-C.   1.516E+00  1.608E+00  0.000E+00   |  X0003BXX0008            1.5155 1608.                                         0
Series R-L-C.   1.516E+00  1.608E+00  0.000E+00   |  X0003AXX0008            1.5155 1608.                                         0
Series R-L-C.   1.516E+00  1.608E+00  0.000E+00   |  X0003CXX0008            1.5155 1608.                                         0
Series R-L-C.   3.272E-01  3.472E-01  0.000E+00   |  XX0008                   .3272 347.2                                         0
Series R-L-C.   3.000E+01  0.000E+00  0.000E+00   |  XX0009                     30.                                               0
Series R-L-C.   6.000E+02  0.000E+00  0.000E+00   |  X0002AX0010A              600.                                               0
Series R-L-C.   6.000E+02  0.000E+00  0.000E+00   |  X0002BX0010B              600.                                               0
Series R-L-C.   6.000E+02  0.000E+00  0.000E+00   |  X0002CX0010C              600.                                               0
Dynamic $INCLUDE uses fixed RAM cache to delay.   |$INSERT, C:\SimulacaoATP\2\EXT1.pch
J. Marti line, mode  1   parameters begin.        |-1X0010AX0006C                2.  0.00              -2 3
J. Marti line, mode  2   parameters begin.        |-2X0010BX0006A                2.  0.00              -2 3
J. Marti line, mode  3   parameters begin.        |-3X0010CX0006B                2.  0.00              -2 3
TR(1,1 )...  0.667-0.707-0.317                    |  0.66668704 -0.70710678 -0.31743981
TI(1,1 )...  0.000 0.000 0.004                    |  0.00000000  0.00000000  0.00360196
TR(2,1 )...  0.333 0.000 0.894                    |  0.33285412  0.00000000  0.89350256
TI(2,1 )... -0.016 0.000 0.010                    | -0.01627623  0.00000000  0.00954818
TR(3,1 )...  0.667 0.707-0.317                    |  0.66668704  0.70710678 -0.31743981
TI(3,1 )...  0.000 0.000 0.004                    |  0.00000000  0.00000000  0.00360196
Dynamic $INCLUDE uses fixed RAM cache to delay.   |$INSERT, C:\SimulacaoATP\2\CONV2.pch
J. Marti line, mode  1   parameters begin.        |-1X0004AX0005C                2.  0.00              -2 3
J. Marti line, mode  2   parameters begin.        |-2X0004BX0005A                2.  0.00              -2 3
J. Marti line, mode  3   parameters begin.        |-3X0004CX0005B                2.  0.00              -2 3
TR(1,1 )...  0.667-0.707-0.317                    |  0.66668704 -0.70710678 -0.31743981
TI(1,1 )...  0.000 0.000 0.004                    |  0.00000000  0.00000000  0.00360196
TR(2,1 )...  0.333 0.000 0.894                    |  0.33285412  0.00000000  0.89350256
TI(2,1 )... -0.016 0.000 0.010                    | -0.01627623  0.00000000  0.00954818
TR(3,1 )...  0.667 0.707-0.317                    |  0.66668704  0.70710678 -0.31743981
TI(3,1 )...  0.000 0.000 0.004                    |  0.00000000  0.00000000  0.00360196
Dynamic $INCLUDE uses fixed RAM cache to delay.   |$INSERT, C:\SimulacaoATP\2\EXT3.pch
J. Marti line, mode  1   parameters begin.        |-1X0005AX0003A                2.  0.00              -2 3
J. Marti line, mode  2   parameters begin.        |-2X0005BX0003B                2.  0.00              -2 3
J. Marti line, mode  3   parameters begin.        |-3X0005CX0003C                2.  0.00              -2 3
TR(1,1 )...  0.667-0.707-0.317                    |  0.66668704 -0.70710678 -0.31743981
TI(1,1 )...  0.000 0.000 0.004                    |  0.00000000  0.00000000  0.00360196
TR(2,1 )...  0.333 0.000 0.894                    |  0.33285412  0.00000000  0.89350256
TI(2,1 )... -0.016 0.000 0.010                    | -0.01627623  0.00000000  0.00954818
TR(3,1 )...  0.667 0.707-0.317                    |  0.66668704  0.70710678 -0.31743981
TI(3,1 )...  0.000 0.000 0.004                    |  0.00000000  0.00000000  0.00360196
Dynamic $INCLUDE uses fixed RAM cache to delay.   |$INSERT, C:\SimulacaoATP\2\CONV4.pch
J. Marti line, mode  1   parameters begin.        |-1X0006AX0004C                2.  0.00              -2 3
J. Marti line, mode  2   parameters begin.        |-2X0006BX0004A                2.  0.00              -2 3
J. Marti line, mode  3   parameters begin.        |-3X0006CX0004B                2.  0.00              -2 3
TR(1,1 )...  0.667-0.707-0.317                    |  0.66668704 -0.70710678 -0.31743981
TI(1,1 )...  0.000 0.000 0.004                    |  0.00000000  0.00000000  0.00360196
TR(2,1 )...  0.333 0.000 0.894                    |  0.33285412  0.00000000  0.89350256
TI(2,1 )... -0.016 0.000 0.010                    | -0.01627623  0.00000000  0.00954818
TR(3,1 )...  0.667 0.707-0.317                    |  0.66668704  0.70710678 -0.31743981
TI(3,1 )...  0.000 0.000 0.004                    |  0.00000000  0.00000000  0.00360196
Blank card ending branches.  IBR, NTOT = 26  27   |BLANK BRANCH
Switch.   5.50E-02  1.00E-03  0.00E+00  3.33E+03  |  X0001BX0002B      .055      .001               3333.STATISTICS               0
Switch.   5.50E-02  1.00E-03  0.00E+00  3.33E+03  |  X0001AX0002A      .055      .001               3333.STATISTICS               0
Switch.   5.50E-02  1.00E-03  0.00E+00  3.33E+03  |  X0001CX0002C      .055      .001               3333.STATISTICS               0
Switch.   1.00E-02  1.00E-03  0.00E+00  0.00E+00  |  X0003CXX0009       .01      .001                    STATISTICS               1
Switch.   7.00E-01  1.00E-03  0.00E+00  0.00E+00  |  X0001BX0002B        .7      .001                    STATISTICS               0
Switch.   7.00E-01  1.00E-03  0.00E+00  0.00E+00  |  X0001AX0002A        .7      .001                    STATISTICS               0
Switch.   7.00E-01  1.00E-03  0.00E+00  0.00E+00  |  X0001CX0002C        .7      .001                    STATISTICS               0
Switch.   0.00E+00  6.98E-01  0.00E+00  0.00E+00  |  X0002AX0010A                .698                                             0
Switch.   0.00E+00  6.98E-01  0.00E+00  0.00E+00  |  X0002BX0010B                .698                                             0
Switch.   0.00E+00  6.98E-01  0.00E+00  0.00E+00  |  X0002CX0010C                .698                                             0
Switch.   7.10E-01  0.00E+00  0.00E+00  0.00E+00  |  X0002AX0010A       .71                                                       0
Switch.   7.10E-01  0.00E+00  0.00E+00  0.00E+00  |  X0002BX0010B       .71                                                       0
Switch.   7.10E-01  0.00E+00  0.00E+00  0.00E+00  |  X0002CX0010C       .71                                                       0
Blank card ending switches.   KSWTCH = 13.        |BLANK SWITCH
Source.   4.29E+05  6.00E+01  0.00E+00 -1.00E+00  |14X0007A  428660.705       60.                                     -1.      100.
Source.   4.29E+05  6.00E+01 -1.20E+02 -1.00E+00  |14X0007B  428660.705       60.     -120.                           -1.      100.
Source.   4.29E+05  6.00E+01 -2.40E+02 -1.00E+00  |14X0007C  428660.705       60.     -240.                           -1.      100.
Blank card ends electric sources.  KCONST = 3     |BLANK SOURCE

     Total network loss  P-loss  by summing injections =   2.359741646785E+08

Card of names for time-step loop output.          |  X0003AX0003BX0003C
Output voltage differences for pairs of A6 names  |-5X0003BX0003CX0003AX0003BX0003CX0003A
Blank card ending requests for output variables.  |BLANK OUTPUT

Column headings for the  7   EMTP output variables follow.  These are divided among the 5 possible classes as follows ....
  First  6     output variables are electric-network voltage differences (upper voltage minus lower voltage);
  Next   1     output variables are branch currents (flowing from the upper node to the lower node);
   Step      Time      X0003A     X0003B     X0003C     X0003B     X0003A     X0003C     X0003C
                                                        X0003C     X0003B     X0003A     XX0009
 ***      Phasor I(0) =  1.2530871E+02                     Switch  "X0001B"  to  "X0002B"  closed in the steady-state.
 ***      Phasor I(0) =  3.6994322E+02                     Switch  "X0001A"  to  "X0002A"  closed in the steady-state.
 ***      Phasor I(0) = -4.9200433E+02                     Switch  "X0001C"  to  "X0002C"  closed in the steady-state.
 ***                    Switch  "X0002A"  to  "X0010A"  closed  after  0.00000000E+00  sec.
 ***                    Switch  "X0002B"  to  "X0010B"  closed  after  0.00000000E+00  sec.
 ***                    Switch  "X0002C"  to  "X0010C"  closed  after  0.00000000E+00  sec.
      0       0.0  214689.688 -303859.19 87715.5754 -391574.76 518548.876 -126974.11        0.0
    500     .5E-3  252486.371 -283640.85 30919.5238 -314560.38 536127.223 -221566.85        0.0
   1000     .1E-2  282360.766 -253808.29 -27406.312 -226401.98 536169.055 -309767.08        0.0
   1500     .0015  301433.499 -215094.98 -84618.835 -130476.15 516528.484 -386052.33        0.0
   2000      .002  541174.378 -65534.864 -540637.78 475102.921 606709.241 -.108181E7        0.0
   2500     .0025  518325.244 106229.262 -643846.46 750075.718 412095.982 -.116217E7        0.0
   3000      .003  449647.379 240229.578  -711363.8 951593.379   209417.8 -.116101E7        0.0
   3500     .0035  349298.296 338198.174 -713652.15  .105185E7 11100.1218 -.106295E7        0.0
   4000      .004  234807.477 440304.665 -656312.49 .1096617E7 -205497.19 -891119.96        0.0
   4500     .0045  113414.603 528873.066 -592481.45 .1121355E7 -415458.46 -705896.05        0.0
   5000      .005  -31044.866 587403.321 -509844.38 .1097248E7 -618448.19 -478799.51        0.0
   5500     .0055   -273945.6 586088.302 -275481.41 861569.714  -860033.9 -1535.8146        0.0
   6000      .006  -441384.18 524682.457 -58811.508 583493.964 -966066.64 382572.672        0.0
   6500     .0065  -535852.46 450242.923 123368.884 326874.039 -986095.38 659221.341        0.0
   7000      .007  -586704.81 373403.293 255179.457 118223.835  -960108.1 841884.265        0.0
   7500     .0075  -602373.86 295197.112 328091.316 -32894.204 -897570.97 930465.175        0.0
   8000      .008  -590398.27 203703.866 374186.073 -170482.21 -794102.13  964584.34        0.0
   8500     .0085  -550513.96  102338.69 405303.015 -302964.33 -652852.65 955816.979        0.0
   9000      .009  -449808.53 10359.8868 378424.592  -368064.7 -460168.42  828233.12        0.0
   9500     .0095  -332022.85 -52499.787 323221.769 -375721.56 -279523.06 655244.616        0.0
  10000       .01  -233354.98 -97106.698 270023.082 -367129.78 -136248.28 503378.058        0.0
 ***                                                             Close switch  "X0003C"  to  "XX0009"  after  1.00010000E-02  sec.
  10500     .0105  -209538.42 -196719.79 22663.2876 -219383.08 -12818.628 232201.706 755.442921
  11000      .011  -148609.65  -242862.9 23250.7739 -266113.68 94253.2557 171860.423 775.025798
  11500     .0115  -98122.881 -297164.23 25916.4725  -323080.7 199041.348 124039.353 863.882415
  12000      .012  -63097.739 -355174.97 31052.4339  -386227.4 292077.227 94150.1727 1035.08113
  12500     .0125  -41408.335 -394245.03 35744.4914 -429989.52 352836.691 77152.8269 1191.48305
  13000      .013  -16487.997 -434442.32 39810.4519 -474252.78 417954.328 56298.4488 1327.01506
  13500     .0135   -32989.09 -490866.36 44881.6804 -535748.04 457877.272 77870.7706 1496.05601
  14000      .014  -43276.669 -581550.86 55360.9692 -636911.83 538274.191 98637.6382 1845.36564
  14500     .0145  60632.9431 -562171.89 62157.5574 -624329.45 622804.834 1524.61432 2071.91858
  15000      .015  165191.973 -515740.47 62495.8577 -578236.33 680932.444 -102696.12 2083.19526
  15500     .0155  260645.517 -455528.03 56777.4792 -512305.51 716173.545 -203868.04 1892.58264
  16000      .016  361962.372 -381424.96 48338.4194 -429763.37 743387.327 -313623.95 1611.28065
  16500     .0165   462743.96 -286697.73 38767.3517 -325465.08 749441.686 -423976.61 1292.24506
  17000      .017  556203.411 -166410.16 27370.8071 -193780.97 722613.575  -528832.6 912.360237
  17500     .0175  620425.818 -32194.552 15664.2221 -47858.774  652620.37  -604761.6 522.140737
  18000      .018  646222.691   113937.2 7992.66758 105944.533  532285.49 -638230.02 266.422253
  18500     .0185  637567.513 255019.995 2726.66882 252293.326 382547.519 -634840.84 90.8889606
  19000      .019   590457.42 374095.545 -4473.9622 378569.507 216361.875 -594931.38 -149.13207
  19500     .0195  507783.638 471225.081 -13082.481 484307.562 36558.5577 -520866.12  -436.0827
  20000       .02  393233.223 543696.403 -22102.746 565799.149 -150463.18 -415335.97 -736.75819
  20500     .0205  258735.829 588894.093  -30865.45 619759.543 -330158.26 -289601.28 -1028.8483
  21000      .021   116212.73 605172.887 -39188.997 644361.885 -488960.16 -155401.73 -1306.2999
  21500     .0215  -30915.232 585662.798 -46189.955 631852.753 -616578.03 -15274.723 -1539.6652
  22000      .022  -172527.95 535935.393 -50428.531 586363.924 -708463.34 122099.419  -1680.951
  22500     .0225  -292315.98 473330.393 -51982.963 525313.356 -765646.37 240333.013 -1732.7654
  23000      .023  -384281.84 406212.926 -51388.086 457601.012 -790494.76 332893.752 -1712.9362
  23500     .0235  -449164.11 334568.728 -49243.151 383811.879 -783732.84 399920.958 -1641.4384
  24000      .024  -489740.37 258805.985  -45671.24 304477.225 -748546.36 444069.131 -1522.3747
  24500     .0245  -508720.89  181418.03 -40696.299 222114.329 -690138.92 468024.595 -1356.5433
  25000      .025  -508975.68  105571.16 -34624.835 140195.995 -614546.84 474350.842 -1154.1612
  25500     .0255   -495639.2 31345.2496  -27492.08 58837.3294 -526984.45 468147.118 -916.40266
  26000      .026  -471963.86 -41889.641 -18847.846 -23041.795 -430074.22  453116.01 -628.26154
  26500     .0265  -440323.24 -115660.64 -8641.9555 -107018.69  -324662.6 431681.286 -288.06518
  27000      .027  -402894.94 -191119.71 2448.66627 -193568.37 -211775.23 405343.604 81.6222089
  27500     .0275  -360148.83 -267472.33 13606.5589 -281078.89 -92676.505 373755.393 453.551963
  28000      .028  -311043.39 -342441.11 24211.5126 -366652.62 31397.7165 335254.903 807.050419
  28500     .0285  -253555.67 -412525.71 33781.2191 -446306.93 158970.041 287336.889 1126.04064
  29000      .029  -186142.32 -473884.87  41854.082 -515738.96 287742.558 227996.399 1395.13607
  29500     .0295  -109486.39 -523226.11 48149.9531 -571376.06 413739.718 157636.344 1604.99844
  30000       .03  -24874.532 -556568.96 52640.6325  -609209.6 531694.431 77515.1641 1754.68775
  30500     .0305  66793.3844 -568984.71 55357.6031 -624342.31  635778.09 -11435.781 1845.25344
  31000      .031  163741.774  -556280.3 56301.6332 -612581.93 720022.076 -107440.14 1876.72111
  31500     .0315  262037.779 -516758.21 55444.6185 -572202.83 778795.992 -206593.16 1848.15395
  32000      .032  356073.385  -451494.3 52794.0816 -504288.38 807567.686  -303279.3 1759.80272
  32500     .0325  439952.518 -363571.44 48406.5345 -411977.98 803523.963 -391545.98 1613.55115
  33000      .033  508349.169 -257573.48 42357.4019 -299930.88 765922.649 -465991.77  1411.9134
  33500     .0335  556708.367 -139412.21 34811.0617 -174223.27  696120.58 -521897.31 1160.36872
  34000      .034  581619.043 -15785.126 26088.9505 -41874.077 597404.169 -555530.09 869.631685
  34500     .0345  581070.942 106357.035 16600.0418 89756.9932 474713.907  -564470.9 553.334728
  35000      .035  554727.246 220411.778 6722.60641 213689.172 334315.468 -548004.64  224.08688
  35500     .0355  504067.659 320847.057 -3227.0125  324074.07 183220.602 -507294.67 -107.56708
  36000      .036  432203.937 403711.025 -12957.431 416668.456 28492.9119 -445161.37 -431.91437
  36500     .0365  343493.431 466793.105 -22185.662 488978.768 -123299.67 -365679.09 -739.52207
  37000      .037  242923.571 509357.352 -30650.095 540007.447 -266433.78 -273573.67 -1021.6698
  37500     .0375   135507.57 531704.396 -38101.377 569805.772 -396196.83 -173608.95 -1270.0459
  38000      .038  26053.6354  534952.85 -44283.796 579236.646 -508899.21 -70337.432 -1476.1265
  38500     .0385  -80910.376 520944.261 -48943.754 569888.015 -601854.64 31966.6223 -1631.4585
  39000      .039   -181343.5 491959.981 -51860.145 543820.126 -673303.48  129483.35 -1728.6715
  39500     .0395  -271980.39 450222.852 -52874.472 503097.324 -722203.24 219105.916 -1762.4824
  40000       .04  -350448.28 397510.663  -51907.29 449417.953 -747958.94 298540.988  -1730.243
  40500     .0405  -415125.46 335105.775 -48968.751 384074.525 -750231.24 366156.712 -1632.2917
  41000      .041   -464937.5 263968.755 -44165.551 308134.306 -728906.25 420771.945  -1472.185
  41500     .0415  -499221.79 184975.682 -37689.433 222665.115 -684197.47 461532.357 -1256.3144
  42000      .042  -517630.87 99151.7878 -29791.059 128942.847 -616782.66 487839.815  -993.0353
  % % % % % %   Suspended simulation;  plot data space exhausted;  SPY SPACE is required.   LIMBUF =  340000.
  % % % % % %   Suspended simulation;  plot data space exhausted;  SPY SPACE is required.   LIMBUF =  340000.
  +++  Time-sharing disabled.   Send  user-keyed interrupt to silence alarm.
