   ---   55   cards of disk file read into card cache cells  1   onward.
 <===> Done with  "/"-card sorting by data class.    Remember that the source file appears different from interpreted input data.
Alternative Transients Program (ATP),  F77 GNU Linux or DOS.  All rights reserved by Can/Am user group of Portland, Oregon, USA.
 Date (dd-mth-yy) and time of day (hh.mm.ss) = 11-Nov-18  11.00.00    Name of disk plot file, if any, is
Consult the 860-page ATP Rule Book of the Can/Am EMTP User Group in Portland,  Oregon, USA.  Source code date is
Total size of LABCOM tables = 16446853 INTEGER words.  31 VARDIM  List Sizes follow:  6002  10K  192K  900  420K  1200  15K
  120K  2250  3800  720  2K  72800  510  800K  800  90  254  800K  100K  3K  15K  192K  120  45K  260K  600  210K  1100  19  200K
--------------------------------------------------+--------------------------------------------------------------------------------
Descriptive interpretation of input data cards.   |  Input data card images are shown below, all 80 columns, character by character
                                                  0         1         2         3         4         5         6         7         8
                                                  012345678901234567890123456789012345678901234567890123456789012345678901234567890
--------------------------------------------------+--------------------------------------------------------------------------------
Comment card.   KOMPAR > 0.                       |C data:Caso0_ReEnergizacao_OTIMIZADA_SemControle.atp
Marker card preceding new EMTP data case.         |BEGIN NEW DATA CASE
Comment card.   KOMPAR > 0.                       |C $DUMMY, XYZ000
Misc. data.     1.000E-06   1.000E+00   0.000E+00 |   1.E-6      1.
Misc. data.  500  1  0  0  1  0  0  1  300  0     |     500       1       0       0       1       0       0       1     300
Statistics data.      1    1    0    0    1    0  |       1       1       0       0       1      -1                               0
Series R-L-C.   5.000E+00  7.500E-02  0.000E+00   |  X0001AX0007A                5.   75.                                         0
Series R-L-C.   5.000E+00  7.500E-02  0.000E+00   |  X0001BX0007B                5.   75.                                         0
Series R-L-C.   5.000E+00  7.500E-02  0.000E+00   |  X0001CX0007C                5.   75.                                         0
Series R-L-C.   2.000E+02  0.000E+00  0.000E+00   |  X0007AX0001A              200.                                               0
Series R-L-C.   2.000E+02  0.000E+00  0.000E+00   |  X0007BX0001B              200.                                               0
Series R-L-C.   2.000E+02  0.000E+00  0.000E+00   |  X0007CX0001C              200.                                               0
Series R-L-C.   1.321E+00  1.401E+00  0.000E+00   |  X0003BXX0008            1.32071401.3                                         0
Series R-L-C.   1.321E+00  1.401E+00  0.000E+00   |  X0003AXX0008            1.32071401.3                                         0
Series R-L-C.   1.321E+00  1.401E+00  0.000E+00   |  X0003CXX0008            1.32071401.3                                         0
Series R-L-C.   3.900E-01  4.138E-01  0.000E+00   |  XX0008                     .39 413.8                                         0
Series R-L-C.   3.000E+01  0.000E+00  0.000E+00   |  XX0009                     30.                                               0
Series R-L-C.   2.000E+02  0.000E+00  0.000E+00   |  X0002AX0010A              200.                                               0
Series R-L-C.   2.000E+02  0.000E+00  0.000E+00   |  X0002BX0010B              200.                                               0
Series R-L-C.   2.000E+02  0.000E+00  0.000E+00   |  X0002CX0010C              200.                                               0
Dynamic $INCLUDE uses fixed RAM cache to delay.   |$INSERT, C:\SimulacaoATP\1\EXT1.pch
J. Marti line, mode  1   parameters begin.        |-1X0010AX0005C                2.  0.00              -2 3
J. Marti line, mode  2   parameters begin.        |-2X0010BX0005A                2.  0.00              -2 3
J. Marti line, mode  3   parameters begin.        |-3X0010CX0005B                2.  0.00              -2 3
TR(1,1 )...  0.671-0.707-0.324                    |  0.67102882 -0.70710678 -0.32400803
TI(1,1 )...  0.000 0.000 0.003                    |  0.00000000  0.00000000  0.00341127
TR(2,1 )...  0.315 0.000 0.889                    |  0.31480489  0.00000000  0.88876566
TI(2,1 )... -0.018 0.000 0.010                    | -0.01839933  0.00000000  0.01048452
TR(3,1 )...  0.671 0.707-0.324                    |  0.67102882  0.70710678 -0.32400803
TI(3,1 )...  0.000 0.000 0.003                    |  0.00000000  0.00000000  0.00341127
Dynamic $INCLUDE uses fixed RAM cache to delay.   |$INSERT, C:\SimulacaoATP\1\OTIM2.pch
J. Marti line, mode  1   parameters begin.        |-1X0004AX0006C                2.  0.00              -2 3
J. Marti line, mode  2   parameters begin.        |-2X0004BX0006A                2.  0.00              -2 3
J. Marti line, mode  3   parameters begin.        |-3X0004CX0006B                2.  0.00              -2 3
TR(1,1 )...  0.671-0.707-0.324                    |  0.67102882 -0.70710678 -0.32400803
TI(1,1 )...  0.000 0.000 0.003                    |  0.00000000  0.00000000  0.00341127
TR(2,1 )...  0.315 0.000 0.889                    |  0.31480489  0.00000000  0.88876566
TI(2,1 )... -0.018 0.000 0.010                    | -0.01839933  0.00000000  0.01048452
TR(3,1 )...  0.671 0.707-0.324                    |  0.67102882  0.70710678 -0.32400803
TI(3,1 )...  0.000 0.000 0.003                    |  0.00000000  0.00000000  0.00341127
Dynamic $INCLUDE uses fixed RAM cache to delay.   |$INSERT, C:\SimulacaoATP\1\OTIM3.pch
J. Marti line, mode  1   parameters begin.        |-1X0005AX0004C                2.  0.00              -2 3
J. Marti line, mode  2   parameters begin.        |-2X0005BX0004A                2.  0.00              -2 3
J. Marti line, mode  3   parameters begin.        |-3X0005CX0004B                2.  0.00              -2 3
TR(1,1 )...  0.671-0.707-0.324                    |  0.67102882 -0.70710678 -0.32400803
TI(1,1 )...  0.000 0.000 0.003                    |  0.00000000  0.00000000  0.00341127
TR(2,1 )...  0.315 0.000 0.889                    |  0.31480489  0.00000000  0.88876566
TI(2,1 )... -0.018 0.000 0.010                    | -0.01839933  0.00000000  0.01048452
TR(3,1 )...  0.671 0.707-0.324                    |  0.67102882  0.70710678 -0.32400803
TI(3,1 )...  0.000 0.000 0.003                    |  0.00000000  0.00000000  0.00341127
Dynamic $INCLUDE uses fixed RAM cache to delay.   |$INSERT, C:\SimulacaoATP\1\EXT4.pch
J. Marti line, mode  1   parameters begin.        |-1X0006AX0003A                2.  0.00              -2 3
J. Marti line, mode  2   parameters begin.        |-2X0006BX0003B                2.  0.00              -2 3
J. Marti line, mode  3   parameters begin.        |-3X0006CX0003C                2.  0.00              -2 3
TR(1,1 )...  0.671-0.707-0.324                    |  0.67102882 -0.70710678 -0.32400803
TI(1,1 )...  0.000 0.000 0.003                    |  0.00000000  0.00000000  0.00341127
TR(2,1 )...  0.315 0.000 0.889                    |  0.31480489  0.00000000  0.88876566
TI(2,1 )... -0.018 0.000 0.010                    | -0.01839933  0.00000000  0.01048452
TR(3,1 )...  0.671 0.707-0.324                    |  0.67102882  0.70710678 -0.32400803
TI(3,1 )...  0.000 0.000 0.003                    |  0.00000000  0.00000000  0.00341127
Blank card ending branches.  IBR, NTOT = 26  27   |BLANK BRANCH
Switch.   5.50E-02  1.00E-03  0.00E+00  3.33E+03  |  X0001BX0002B      .055      .001               3333.STATISTICS               0
Switch.   5.50E-02  1.00E-03  0.00E+00  3.33E+03  |  X0001AX0002A      .055      .001               3333.STATISTICS               0
Switch.   5.50E-02  1.00E-03  0.00E+00  3.33E+03  |  X0001CX0002C      .055      .001               3333.STATISTICS               0
Switch.   1.00E-02  1.00E-03  0.00E+00  0.00E+00  |  X0003CXX0009       .01      .001                    STATISTICS               1
Switch.   7.00E-01  1.00E-03  0.00E+00  0.00E+00  |  X0001BX0002B        .7      .001                    STATISTICS               0
Switch.   7.00E-01  1.00E-03  0.00E+00  0.00E+00  |  X0001AX0002A        .7      .001                    STATISTICS               0
Switch.   7.00E-01  1.00E-03  0.00E+00  0.00E+00  |  X0001CX0002C        .7      .001                    STATISTICS               0
Switch.   0.00E+00  6.98E-01  0.00E+00  0.00E+00  |  X0002AX0010A                .698                                             0
Switch.   0.00E+00  6.98E-01  0.00E+00  0.00E+00  |  X0002BX0010B                .698                                             0
Switch.   0.00E+00  6.98E-01  0.00E+00  0.00E+00  |  X0002CX0010C                .698                                             0
Switch.   7.10E-01  0.00E+00  0.00E+00  0.00E+00  |  X0002AX0010A       .71                                                       0
Switch.   7.10E-01  0.00E+00  0.00E+00  0.00E+00  |  X0002BX0010B       .71                                                       0
Switch.   7.10E-01  0.00E+00  0.00E+00  0.00E+00  |  X0002CX0010C       .71                                                       0
Blank card ending switches.   KSWTCH = 13.        |BLANK SWITCH
Source.   4.29E+05  6.00E+01  0.00E+00 -1.00E+00  |14X0007A  428660.705       60.                                     -1.      100.
Source.   4.29E+05  6.00E+01 -1.20E+02 -1.00E+00  |14X0007B  428660.705       60.     -120.                           -1.      100.
Source.   4.29E+05  6.00E+01 -2.40E+02 -1.00E+00  |14X0007C  428660.705       60.     -240.                           -1.      100.
Blank card ends electric sources.  KCONST = 3     |BLANK SOURCE

     Total network loss  P-loss  by summing injections =   1.914664199662E+08

Card of names for time-step loop output.          |  X0003AX0003BX0003C
Output voltage differences for pairs of A6 names  |-5X0003BX0003CX0003AX0003BX0003CX0003A
Blank card ending requests for output variables.  |BLANK OUTPUT

Column headings for the  7   EMTP output variables follow.  These are divided among the 5 possible classes as follows ....
  First  6     output variables are electric-network voltage differences (upper voltage minus lower voltage);
  Next   1     output variables are branch currents (flowing from the upper node to the lower node);
   Step      Time      X0003A     X0003B     X0003C     X0003B     X0003A     X0003C     X0003C
                                                        X0003C     X0003B     X0003A     XX0009
 ***      Phasor I(0) =  4.8473519E+02                     Switch  "X0001B"  to  "X0002B"  closed in the steady-state.
 ***      Phasor I(0) =  2.9963042E+02                     Switch  "X0001A"  to  "X0002A"  closed in the steady-state.
 ***      Phasor I(0) = -7.8513536E+02                     Switch  "X0001C"  to  "X0002C"  closed in the steady-state.
 ***                    Switch  "X0002A"  to  "X0010A"  closed  after  0.00000000E+00  sec.
 ***                    Switch  "X0002B"  to  "X0010B"  closed  after  0.00000000E+00  sec.
 ***                    Switch  "X0002C"  to  "X0010C"  closed  after  0.00000000E+00  sec.
      0       0.0  388487.756  -331443.9  -52283.42 -279160.48 719931.661 -440771.18        0.0
    500     .5E-3  409993.159 -276960.36 -128359.62 -148600.74 686953.516 -538352.78        0.0
   1000     .1E-2  418992.364 -213322.35 -199915.95 -13406.403 632314.716 -618908.31        0.0
   1500     .0015  412516.689 -141891.43 -264394.97 122503.536  554408.12 -676911.66        0.0
   2000      .002  432710.548 45217.2583 -516022.23 561239.484  387493.29 -948732.77        0.0
   2500     .0025   381553.86 192542.737 -573669.52  766212.26 189011.123 -955223.38        0.0
   3000      .003  299833.525 302397.646 -599818.32  902215.97 -2564.1215 -899651.85        0.0
   3500     .0035  198544.675 386424.593  -585461.3 971885.889 -187879.92 -784005.97        0.0
   4000      .004  92215.6694 460297.597 -535688.36 995985.954 -368081.93 -627904.03        0.0
   4500     .0045   -14469.88 514926.503 -473464.21 988390.709 -529396.38 -458994.33        0.0
   5000      .005  -127346.66 545618.876 -397131.92   942750.8 -672965.54 -269785.26        0.0
   5500     .0055  -256905.35 524785.062 -256936.73 781721.791 -781690.42  -31.37526        0.0
   6000      .006  -355198.08 469316.948 -102847.06 572164.006 -824515.03 252351.026        0.0
   6500     .0065  -421139.47  406814.82 28270.4017 378544.418 -827954.29 449409.876        0.0
   7000      .007  -463411.12 341156.438 132255.335 208901.103 -804567.56 595666.454        0.0
   7500     .0075  -482570.07 274116.963 207887.057 66229.9054 -756687.03 690457.128        0.0
   8000      .008  -483128.26 201873.476 267296.223 -65422.747 -685001.74 750424.487        0.0
   8500     .0085  -468854.17    125142. 316484.758 -191342.76 -593996.17 785338.929        0.0
   9000      .009  -427776.54  52916.858 344013.375 -291096.52  -480693.4 771789.913        0.0
   9500     .0095  -371196.41 -3768.7758  345375.13 -349143.91 -367427.64 716571.543        0.0
  10000       .01  -313249.72 -53663.915 339534.161 -393198.08  -259585.8 652783.877        0.0
 ***                                                             Close switch  "X0003C"  to  "XX0009"  after  1.00010000E-02  sec.
  10500     .0105   -355004.1 -203853.37 34495.8878 -238349.26 -151150.73 389499.985 1149.86293
  11000      .011  -297259.61 -262663.68 36279.8549 -298943.53 -34595.936 333539.467  1209.3285
  11500     .0115  -236469.27 -324874.36 38690.2561 -363564.62 88405.0917 275159.526  1289.6752
  12000      .012  -177876.41 -391916.26 42724.1873 -434640.45 214039.846 220600.599 1424.13958
  12500     .0125  -110077.25 -438640.49 44827.7806 -483468.27 328563.237 154905.033 1494.25935
  13000      .013  -29129.284 -478378.76 45100.0814 -523478.84 449249.471 74229.3655 1503.33605
  13500     .0135  14171.4756 -516696.05 44945.8525 -561641.91 530867.529 30774.3768 1498.19508
  14000      .014  17311.3174 -617587.99 54838.8464 -672426.83 634899.305 37527.5291 1827.96155
  14500     .0145  140773.618 -586540.69 64172.8537 -650713.54 727314.307 -76600.764 2139.09512
  15000      .015   263687.34  -516133.6 68242.2165 -584375.82 779820.939 -195445.12 2274.74055
  15500     .0155  359530.953 -436998.19 64450.7478 -501448.93  796529.14 -295080.21 2148.35826
  16000      .016  441810.522 -346734.94  56735.788 -403470.72 788545.458 -385074.73 1891.19293
  16500     .0165  513543.826 -238122.52 47005.8878 -285128.41 751666.348 -466537.94 1566.86293
  17000      .017  573184.947 -111784.85 34563.0696 -146347.92 684969.795 -538621.88 1152.10232
  17500     .0175  612570.105  23994.155 19879.6196 4114.53535  588575.95 -592690.49 662.653988
  18000      .018  614759.624 159807.683 8609.33211 151198.351 454951.941 -606150.29 286.977737
  18500     .0185  590109.115 287760.068 2706.67286 285053.395 302349.047 -587402.44 90.2224287
  19000      .019  537848.897 392548.699 -4048.1523 396596.851 145300.198 -541897.05 -134.93841
  19500     .0195  463463.395 476520.142 -12242.854 488762.996 -13056.747 -475706.25 -408.09514
  20000       .02  367637.801 537700.141 -21152.967 558853.108 -170062.34 -388790.77  -705.0989
  20500     .0205   256773.68  575093.11 -29975.971 605069.081 -318319.43 -286749.65 -999.19905
  21000      .021  137896.699 589809.155 -38524.393 628333.548 -451912.46 -176421.09 -1284.1464
  21500     .0215  13504.5014 577420.352 -46562.505 623982.857 -563915.85 -60067.006 -1552.0835
  22000      .022  -114647.23 535568.047 -52314.319 587882.366 -650215.27 62332.9073 -1743.8106
  22500     .0225  -231879.64 479366.541 -54808.227 534174.768 -711246.18 177071.414 -1826.9409
  23000      .023  -329558.18 419525.983 -54111.403 473637.386 -749084.16 275446.774 -1803.7134
  23500     .0235  -407832.69 355246.031 -51132.058 406378.089 -763078.72 356700.634 -1704.4019
  24000      .024  -468149.16 284307.437 -46478.763   330786.2  -752456.6 421670.396 -1549.2921
  24500     .0245  -510413.63 206874.939 -40391.213 247266.153 -717288.57 470022.416 -1346.3738
  25000      .025  -533476.47 125607.753 -33233.353 158841.106 -659084.23 500243.122 -1107.7784
  25500     .0255  -538368.99 42435.6402 -25461.245 67896.8852 -580804.63 512907.749 -848.70817
  26000      .026  -527624.96 -42636.804 -16858.698 -25778.106 -484988.16 510766.265 -561.95661
  26500     .0265  -502611.44 -129650.76 -6952.9111 -122697.85 -372960.68 495658.524  -231.7637
  27000      .027  -464584.22 -218045.41 3998.19909 -222043.61 -246538.81 468582.418 133.273303
  27500     .0275  -414105.66  -304940.6 15268.7396 -320209.34 -109165.06 429374.398 508.957986
  28000      .028  -351690.59 -386205.07 26163.0158 -412368.09 34514.4828 377853.604 872.100527
  28500     .0285  -278190.65  -457448.6 36149.0035 -493597.61 179257.954 314339.652 1204.96678
  29000      .029  -194479.32 -514520.44 44743.2185 -559263.65 320041.119 239222.536 1491.44062
  29500     .0295  -102587.14 -554358.13 51484.9741  -605843.1 451770.991 154072.112  1716.1658
  30000       .03   -5805.939 -574817.02 56158.7205 -630975.74 569011.081 61964.6595 1871.95735
  30500     .0305  93082.0844 -573356.46 58805.6147 -632162.08 666438.545  -34276.47 1960.18716
  31000      .031   191854.21 -547618.32 59562.2002 -607180.52  739472.53 -132292.01 1985.40667
  31500     .0315  287506.439 -497202.17 58514.3456 -555716.52 784708.613 -228992.09 1950.47819
  32000      .032  375977.091 -424256.79 55687.4276 -479944.21 800233.877 -320289.66 1856.24759
  32500     .0325  452894.282 -332673.21 51125.1448 -383798.35 785567.491 -401769.14 1704.17149
  33000      .033  514443.849 -227064.54 44902.2144 -271966.75 741508.387 -469541.64 1496.74048
  33500     .0335   557586.33  -112496.9  37118.467 -149615.37 670083.234 -520467.86 1237.28223
  34000      .034  579959.216 5496.54795 27985.1927 -22488.645 574462.668 -551974.02 932.839756
  34500     .0345  579976.998 121224.797  17873.468 103351.329 458752.201 -562103.53 595.782267
  35000      .035  557079.168 229336.643  7229.5201 222107.123 327742.525 -549849.65 240.984003
  35500     .0355  512001.217  325412.32 -3524.1323 328936.452 186588.898 -515525.35 -117.47108
  36000      .036  446769.438 406276.073 -14010.433 420286.506 40493.3652 -460779.87 -467.01444
  36500     .0365  364457.789 469929.381 -23880.324 493809.705 -105471.59 -388338.11  -796.0108
  37000      .037  268888.283 515345.401 -32815.394 548160.795 -246457.12 -301703.68 -1093.8465
  37500     .0375  164242.619 542187.085 -40547.819 582734.904 -377944.47 -204790.44  -1351.594
  38000      .038  54762.8535 550589.007  -46853.55 597442.557 -495826.15  -101616.4  -1561.785
  38500     .0385  -55308.843 541148.041 -51528.635 592676.676 -596456.88 3780.20783 -1717.6212
  39000      .039  -161779.55 514935.862 -54384.453 569320.315 -676715.41 107395.095 -1812.8151
  39500     .0395  -260729.12   473320.7 -55271.327 528592.027 -734049.82 205457.789 -1842.3776
  40000       .04  -348788.11 417723.608 -54110.383 471833.991 -766511.72 294677.729 -1803.6794
  40500     .0405  -423262.88 349547.828 -50910.969 400458.797 -772810.71 372351.913 -1697.0323
  41000      .041  -482077.08 270315.584 -45776.119 316091.703 -752392.67 436300.965 -1525.8706
  41500     .0415  -523694.53 181843.265 -38901.613 220744.879  -705537.8 484792.921 -1296.7204
  42000      .042  -547123.84 86328.8561 -30560.494  116889.35  -633452.7 516563.349 -1018.6831
  % % % % % %   Suspended simulation;  plot data space exhausted;  SPY SPACE is required.   LIMBUF =  340000.
  % % % % % %   Suspended simulation;  plot data space exhausted;  SPY SPACE is required.   LIMBUF =  340000.
  +++  Time-sharing disabled.   Send  user-keyed interrupt to silence alarm.
