   ---   55   cards of disk file read into card cache cells  1   onward.
 <===> Done with  "/"-card sorting by data class.    Remember that the source file appears different from interpreted input data.
Alternative Transients Program (ATP),  F77 GNU Linux or DOS.  All rights reserved by Can/Am user group of Portland, Oregon, USA.
 Date (dd-mth-yy) and time of day (hh.mm.ss) = 11-Nov-18  11.00.00    Name of disk plot file, if any, is
Consult the 860-page ATP Rule Book of the Can/Am EMTP User Group in Portland,  Oregon, USA.  Source code date is
Total size of LABCOM tables = 16446853 INTEGER words.  31 VARDIM  List Sizes follow:  6002  10K  192K  900  420K  1200  15K
  120K  2250  3800  720  2K  72800  510  800K  800  90  254  800K  100K  3K  15K  192K  120  45K  260K  600  210K  1100  19  200K
--------------------------------------------------+--------------------------------------------------------------------------------
Descriptive interpretation of input data cards.   |  Input data card images are shown below, all 80 columns, character by character
                                                  0         1         2         3         4         5         6         7         8
                                                  012345678901234567890123456789012345678901234567890123456789012345678901234567890
--------------------------------------------------+--------------------------------------------------------------------------------
Comment card.   KOMPAR > 0.                       |C data:Caso0_ReEnergizacao_OTIMIZADA_SemControle.atp
Marker card preceding new EMTP data case.         |BEGIN NEW DATA CASE
Comment card.   KOMPAR > 0.                       |C $DUMMY, XYZ000
Misc. data.     1.000E-06   1.000E+00   0.000E+00 |   1.E-6      1.
Misc. data.  500  1  0  0  1  0  0  1  300  0     |     500       1       0       0       1       0       0       1     300
Statistics data.      1    1    0    0    1    0  |       1       1       0       0       1      -1                               0
Series R-L-C.   5.000E+00  7.500E-02  0.000E+00   |  X0001AX0007A                5.   75.                                         0
Series R-L-C.   5.000E+00  7.500E-02  0.000E+00   |  X0001BX0007B                5.   75.                                         0
Series R-L-C.   5.000E+00  7.500E-02  0.000E+00   |  X0001CX0007C                5.   75.                                         0
Series R-L-C.   2.000E+02  0.000E+00  0.000E+00   |  X0007AX0001A              200.                                               0
Series R-L-C.   2.000E+02  0.000E+00  0.000E+00   |  X0007BX0001B              200.                                               0
Series R-L-C.   2.000E+02  0.000E+00  0.000E+00   |  X0007CX0001C              200.                                               0
Series R-L-C.   1.321E+00  1.401E+00  0.000E+00   |  X0003BXX0008            1.32071401.3                                         0
Series R-L-C.   1.321E+00  1.401E+00  0.000E+00   |  X0003AXX0008            1.32071401.3                                         0
Series R-L-C.   1.321E+00  1.401E+00  0.000E+00   |  X0003CXX0008            1.32071401.3                                         0
Series R-L-C.   3.900E-01  4.138E-01  0.000E+00   |  XX0008                     .39 413.8                                         0
Series R-L-C.   3.000E+01  0.000E+00  0.000E+00   |  XX0009                     30.                                               0
Series R-L-C.   5.000E+02  0.000E+00  0.000E+00   |  X0002AX0010A              500.                                               0
Series R-L-C.   5.000E+02  0.000E+00  0.000E+00   |  X0002BX0010B              500.                                               0
Series R-L-C.   5.000E+02  0.000E+00  0.000E+00   |  X0002CX0010C              500.                                               0
Dynamic $INCLUDE uses fixed RAM cache to delay.   |$INSERT, C:\SimulacaoATP\EXT1.pch
J. Marti line, mode  1   parameters begin.        |-1X0010AX0005C                2.  0.00              -2 3
J. Marti line, mode  2   parameters begin.        |-2X0010BX0005A                2.  0.00              -2 3
J. Marti line, mode  3   parameters begin.        |-3X0010CX0005B                2.  0.00              -2 3
TR(1,1 )...  0.671-0.707-0.324                    |  0.67102882 -0.70710678 -0.32400803
TI(1,1 )...  0.000 0.000 0.003                    |  0.00000000  0.00000000  0.00341127
TR(2,1 )...  0.315 0.000 0.889                    |  0.31480489  0.00000000  0.88876566
TI(2,1 )... -0.018 0.000 0.010                    | -0.01839933  0.00000000  0.01048452
TR(3,1 )...  0.671 0.707-0.324                    |  0.67102882  0.70710678 -0.32400803
TI(3,1 )...  0.000 0.000 0.003                    |  0.00000000  0.00000000  0.00341127
Dynamic $INCLUDE uses fixed RAM cache to delay.   |$INSERT, C:\SimulacaoATP\OTIM2.pch
J. Marti line, mode  1   parameters begin.        |-1X0004AX0006C                2.  0.00              -2 3
J. Marti line, mode  2   parameters begin.        |-2X0004BX0006A                2.  0.00              -2 3
J. Marti line, mode  3   parameters begin.        |-3X0004CX0006B                2.  0.00              -2 3
TR(1,1 )...  0.671-0.707-0.324                    |  0.67102882 -0.70710678 -0.32400803
TI(1,1 )...  0.000 0.000 0.003                    |  0.00000000  0.00000000  0.00341127
TR(2,1 )...  0.315 0.000 0.889                    |  0.31480489  0.00000000  0.88876566
TI(2,1 )... -0.018 0.000 0.010                    | -0.01839933  0.00000000  0.01048452
TR(3,1 )...  0.671 0.707-0.324                    |  0.67102882  0.70710678 -0.32400803
TI(3,1 )...  0.000 0.000 0.003                    |  0.00000000  0.00000000  0.00341127
Dynamic $INCLUDE uses fixed RAM cache to delay.   |$INSERT, C:\SimulacaoATP\OTIM3.pch
J. Marti line, mode  1   parameters begin.        |-1X0005AX0004C                2.  0.00              -2 3
J. Marti line, mode  2   parameters begin.        |-2X0005BX0004A                2.  0.00              -2 3
J. Marti line, mode  3   parameters begin.        |-3X0005CX0004B                2.  0.00              -2 3
TR(1,1 )...  0.671-0.707-0.324                    |  0.67102882 -0.70710678 -0.32400803
TI(1,1 )...  0.000 0.000 0.003                    |  0.00000000  0.00000000  0.00341127
TR(2,1 )...  0.315 0.000 0.889                    |  0.31480489  0.00000000  0.88876566
TI(2,1 )... -0.018 0.000 0.010                    | -0.01839933  0.00000000  0.01048452
TR(3,1 )...  0.671 0.707-0.324                    |  0.67102882  0.70710678 -0.32400803
TI(3,1 )...  0.000 0.000 0.003                    |  0.00000000  0.00000000  0.00341127
Dynamic $INCLUDE uses fixed RAM cache to delay.   |$INSERT, C:\SimulacaoATP\EXT4.pch
J. Marti line, mode  1   parameters begin.        |-1X0006AX0003A                2.  0.00              -2 3
J. Marti line, mode  2   parameters begin.        |-2X0006BX0003B                2.  0.00              -2 3
J. Marti line, mode  3   parameters begin.        |-3X0006CX0003C                2.  0.00              -2 3
TR(1,1 )...  0.671-0.707-0.324                    |  0.67102882 -0.70710678 -0.32400803
TI(1,1 )...  0.000 0.000 0.003                    |  0.00000000  0.00000000  0.00341127
TR(2,1 )...  0.315 0.000 0.889                    |  0.31480489  0.00000000  0.88876566
TI(2,1 )... -0.018 0.000 0.010                    | -0.01839933  0.00000000  0.01048452
TR(3,1 )...  0.671 0.707-0.324                    |  0.67102882  0.70710678 -0.32400803
TI(3,1 )...  0.000 0.000 0.003                    |  0.00000000  0.00000000  0.00341127
Blank card ending branches.  IBR, NTOT = 26  27   |BLANK BRANCH
Switch.   5.50E-02  1.00E-03  0.00E+00  3.33E+03  |  X0001BX0002B      .055      .001               3333.STATISTICS               0
Switch.   5.50E-02  1.00E-03  0.00E+00  3.33E+03  |  X0001AX0002A      .055      .001               3333.STATISTICS               0
Switch.   5.50E-02  1.00E-03  0.00E+00  3.33E+03  |  X0001CX0002C      .055      .001               3333.STATISTICS               0
Switch.   1.00E-02  1.00E-03  0.00E+00  0.00E+00  |  X0003CXX0009       .01      .001                    STATISTICS               1
Switch.   7.00E-01  1.00E-03  0.00E+00  0.00E+00  |  X0001BX0002B        .7      .001                    STATISTICS               0
Switch.   7.00E-01  1.00E-03  0.00E+00  0.00E+00  |  X0001AX0002A        .7      .001                    STATISTICS               0
Switch.   7.00E-01  1.00E-03  0.00E+00  0.00E+00  |  X0001CX0002C        .7      .001                    STATISTICS               0
Switch.   0.00E+00  6.98E-01  0.00E+00  0.00E+00  |  X0002AX0010A                .698                                             0
Switch.   0.00E+00  6.98E-01  0.00E+00  0.00E+00  |  X0002BX0010B                .698                                             0
Switch.   0.00E+00  6.98E-01  0.00E+00  0.00E+00  |  X0002CX0010C                .698                                             0
Switch.   7.10E-01  0.00E+00  0.00E+00  0.00E+00  |  X0002AX0010A       .71                                                       0
Switch.   7.10E-01  0.00E+00  0.00E+00  0.00E+00  |  X0002BX0010B       .71                                                       0
Switch.   7.10E-01  0.00E+00  0.00E+00  0.00E+00  |  X0002CX0010C       .71                                                       0
Blank card ending switches.   KSWTCH = 13.        |BLANK SWITCH
Source.   4.29E+05  6.00E+01  0.00E+00 -1.00E+00  |14X0007A  428660.705       60.                                     -1.      100.
Source.   4.29E+05  6.00E+01 -1.20E+02 -1.00E+00  |14X0007B  428660.705       60.     -120.                           -1.      100.
Source.   4.29E+05  6.00E+01 -2.40E+02 -1.00E+00  |14X0007C  428660.705       60.     -240.                           -1.      100.
Blank card ends electric sources.  KCONST = 3     |BLANK SOURCE

     Total network loss  P-loss  by summing injections =   2.745162347726E+08

Card of names for time-step loop output.          |  X0003AX0003BX0003C
Output voltage differences for pairs of A6 names  |-5X0003BX0003CX0003AX0003BX0003CX0003A
Blank card ending requests for output variables.  |BLANK OUTPUT

Column headings for the  7   EMTP output variables follow.  These are divided among the 5 possible classes as follows ....
  First  6     output variables are electric-network voltage differences (upper voltage minus lower voltage);
  Next   1     output variables are branch currents (flowing from the upper node to the lower node);
   Step      Time      X0003A     X0003B     X0003C     X0003B     X0003A     X0003C     X0003C
                                                        X0003C     X0003B     X0003A     XX0009
 ***      Phasor I(0) =  1.5643271E+02                     Switch  "X0001B"  to  "X0002B"  closed in the steady-state.
 ***      Phasor I(0) =  4.2879505E+02                     Switch  "X0001A"  to  "X0002A"  closed in the steady-state.
 ***      Phasor I(0) = -5.8189214E+02                     Switch  "X0001C"  to  "X0002C"  closed in the steady-state.
 ***                    Switch  "X0002A"  to  "X0010A"  closed  after  0.00000000E+00  sec.
 ***                    Switch  "X0002B"  to  "X0010B"  closed  after  0.00000000E+00  sec.
 ***                    Switch  "X0002C"  to  "X0010C"  closed  after  0.00000000E+00  sec.
      0       0.0  223415.284  -309506.2 85427.7821 -394933.99 532921.488  -137987.5        0.0
    500     .5E-3  261343.649 -288003.64 27144.8957 -315148.53 549347.287 -234198.75        0.0
   1000     .1E-2  291236.014 -256808.79 -32556.795 -224251.99 548044.801 -323792.81        0.0
   1500     .0015  309872.601 -216671.14 -91014.419 -125656.72 526543.739 -400887.02        0.0
   2000      .002  525956.397 -69270.579 -522067.08 452796.498 595226.976 -.104802E7        0.0
   2500     .0025  514898.675 96757.7979 -629551.48 726309.279 418140.877 -.114445E7        0.0
   3000      .003  446645.239 229846.152 -696570.45 926416.602 216799.086 -.114322E7        0.0
   3500     .0035  345997.787 336077.512 -706167.61 .1042245E7 9920.27536 -.105217E7        0.0
   4000      .004  232128.766  442115.47  -658618.7 .1100734E7  -209986.7 -890747.47        0.0
   4500     .0045  110416.643 531677.388 -596951.25 .1128629E7 -421260.75 -707367.89        0.0
   5000      .005  -30464.753  590872.03  -515679.6 .1106552E7 -621336.78 -485214.84        0.0
   5500     .0055   -247411.2  595122.66 -316661.04 911783.698 -842533.86 -69249.836        0.0
   6000      .006  -421941.16 543104.818 -97542.045 640646.864 -965045.98 324399.115        0.0
   6500     .0065  -524573.81 472758.498 86144.7357 386613.763 -997332.31 610718.546        0.0
   7000      .007  -580174.47 391696.042 227333.965 164362.076 -971870.51 807508.438        0.0
   7500     .0075  -600089.57 305267.378 317722.826 -12455.449 -905356.95 917812.395        0.0
   8000      .008  -590828.75 208172.539 376659.141  -168486.6 -799001.29 967487.893        0.0
   8500     .0085  -558032.47 102939.337  417299.74  -314360.4  -660971.8 975332.208        0.0
   9000      .009  -476498.46 5482.06329 415207.314 -409725.25 -481980.52 891705.775        0.0
   9500     .0095  -362714.81 -66914.052 369507.802 -436421.85 -295800.76 732222.613        0.0
  10000       .01  -258068.36 -118666.38 317999.456 -436665.83 -139401.98 576067.817        0.0
 ***                                                             Close switch  "X0003C"  to  "XX0009"  after  1.00010000E-02  sec.
  10500     .0105  -252626.56 -241526.72 28512.4596 -270039.18 -11099.838 281139.021  950.41532
  11000      .011   -174990.6 -279568.16 27639.1671 -307207.33 104577.562 202629.766 921.305571
  11500     .0115  -113771.84 -322225.56 28818.4529 -351044.01 208453.723 142590.292 960.615098
  12000      .012  -68028.401 -368303.45 32558.5659 -400862.01 300275.047 100586.967 1085.28553
  12500     .0125  -28113.428 -397950.03 35624.1829 -433574.21 369836.601 63737.6106 1187.47276
  13000      .013  6051.66642 -428698.76 38598.3852 -467297.14 434750.423 32546.7188 1286.61284
  13500     .0135  252.053115 -468243.92 42087.9404 -510331.86 468495.973 41835.8873 1402.93135
  14000      .014  -27793.195 -569241.96 54095.2818 -623337.25 541448.769 81888.4765 1803.17606
  14500     .0145  71163.7268 -549073.02 63701.7075 -612774.73 620236.747 -7462.0193 2123.39025
  15000      .015  176789.457 -500167.35 66415.1451  -566582.5 676956.808 -110374.31 2213.83817
  15500     .0155  268873.816 -444756.39 61080.8663 -505837.26 713630.208 -207792.95 2036.02888
  16000      .016  361039.224 -375916.62 52092.2453 -428008.86 736955.841 -308946.98 1736.40818
  16500     .0165  454028.249   -285214. 41420.1622 -326634.17 739242.253 -412608.09 1380.67207
  17000      .017   542769.66 -170599.98  28781.562 -199381.54 713369.639  -513988.1   959.3854
  17500     .0175  613372.615 -36671.946 15049.9995 -51721.945 650044.561 -598322.62 501.666651
  18000      .018  645035.228  107830.43 5239.40368 102591.027 537204.798 -639795.82 174.646789
  18500     .0185  643335.155 251840.985 158.926757 251682.058  391494.17 -643176.23 5.29755856
  19000      .019  604476.259 377054.358 -6351.6702 383406.029 227421.901 -610827.93 -211.72234
  19500     .0195  532119.927 481892.383 -14619.742 496512.126  50227.544 -546739.67 -487.32475
  20000       .02  427707.508 561643.232 -23735.486 585378.718 -133935.72 -451442.99 -791.18287
  20500     .0205  299310.834 613009.947 -32771.052    645781. -313699.11 -332081.89 -1092.3684
  21000      .021   156832.33 634392.267 -41336.408 675728.676 -477559.94 -198168.74 -1377.8803
  21500     .0215  7186.77926 620249.738 -49007.788 669257.526 -613062.96 -56194.567 -1633.5929
  22000      .022  -142717.47  570011.05  -54123.98  624135.03 -712728.52 88593.4945 -1804.1327
  22500     .0225   -275272.3 500651.162 -56018.382 556669.544 -775923.46 219253.915 -1867.2794
  23000      .023  -380814.56 424416.893 -55014.468  479431.36 -805231.45 325800.091 -1833.8156
  23500     .0235  -459111.81 342872.704  -52067.98 394940.685 -801984.52 407043.832 -1735.5993
  24000      .024  -511897.84 256513.365 -47704.631 304217.996  -768411.2 464193.206 -1590.1544
  24500     .0245  -540614.09 167858.012 -42057.879 209915.891  -708472.1 498556.213 -1401.9293
  25000      .025  -546838.35 81197.2199 -35347.788 116545.008 -628035.57 511490.564 -1178.2596
  25500     .0255  -534545.55 -836.59351 -27837.654 27001.0604 -533708.95 506707.893  -927.9218
  26000      .026  -508671.36 -78534.093 -19206.809 -59327.284 -430137.27 489464.553 -640.22698
  26500     .0265  -472489.66 -153288.25 -9050.1475  -144238.1 -319201.41 463439.511 -301.67158
  27000      .027  -428551.26 -226620.84 2245.73339 -228866.57 -201930.42  430796.99 74.8577796
  27500     .0275  -377996.16 -298129.07 13859.2168 -311988.29 -79867.087 391855.375 461.973892
  28000      .028  -321019.95 -366088.55 25035.3497  -391123.9 45068.5957 346055.302 834.511657
  28500     .0285  -257245.01 -428113.67 35207.0331  -463320.7 170868.656 292452.047 1173.56777
  29000      .029  -185769.11  -481429.9  43892.258 -525322.15 295660.781 229661.373 1463.07527
  29500     .0295  -106641.49 -523421.83 50675.6694  -574097.5 416780.334 157317.163 1689.18898
  30000       .03  -21150.103  -551275.3 55392.7736 -606668.08   530125.2 76542.8769 1846.42579
  30500     .0305   69597.239 -560925.99 58101.3924 -619027.38  630523.23 -11495.847 1936.71308
  31000      .031  164383.234 -548083.18  58917.833 -607001.01 712466.412  -105465.4 1963.92777
  31500     .0315  260466.997 -510316.42 57897.0022 -568213.42 770783.414   -202570. 1929.90007
  32000      .032  353373.151 -447860.78 55046.0774 -502906.86  801233.93 -298327.07 1834.86925
  32500     .0325  437738.323 -363065.99 50406.3415 -413472.33 800804.315 -387331.98 1680.21138
  33000      .033   508355.99 -259644.87 44066.4997 -303711.37 768000.863 -464289.49 1468.88332
  33500     .0335  560661.205 -142540.24 36162.0363 -178702.28 703201.444 -524499.17 1205.40121
  34000      .034   590908.24 -17898.823 26951.2284 -44850.051 608807.063 -563957.01 898.374278
  34500     .0345  596463.416 107381.652 16838.5585 90543.0935 489081.764 -579624.86 561.285285
  35000      .035  576158.004 226364.355 6276.04493 220088.311 349793.649 -569881.96 209.201498
  35500     .0355  530595.507 332911.693 -4331.1737 337242.866 197683.815 -534926.68 -144.37246
  36000      .036   462136.51 422255.165 -14636.236 436891.401 39881.3454 -476772.75 -487.87454
  36500     .0365   374578.51 491171.314  -24324.68 515495.994  -116592.8 -398903.19 -810.82266
  37000      .037  272699.914 537952.658 -33108.975 571061.634 -265252.74 -305808.89 -1103.6325
  37500     .0375   161697.92 562212.705 -40739.808 602952.513 -400514.79 -202437.73 -1357.9936
  38000      .038  46750.7199 564663.622 -46995.734 611659.356  -517912.9 -93746.454 -1566.5245
  38500     .0385  -67158.062 546996.039 -51663.776 598659.815  -614154.1  15494.286 -1722.1259
  39000      .039  -175388.06 511684.409 -54542.203 566226.612 -687072.47 120845.853 -1818.0734
  39500     .0395  -273922.99 461562.664 -55469.259 517031.923 -735485.65 218453.731 -1848.9753
  40000       .04   -359639.1 399350.448   -54356.4 453706.848 -758989.55   305282.7   -1811.88
  40500     .0405  -430359.18 327393.522 -51205.726 378599.248  -757752.7 379153.449 -1706.8575
  41000      .041  -484689.22  247669.34  -46114.86   293784.2 -732358.56 438574.356  -1537.162
  41500     .0415  -521825.44 161910.966 -39274.133 201185.099 -683736.41 482551.311 -1309.1378
  42000      .042  -541445.23 71734.5636 -30949.622 102684.186 -613179.79 510495.609 -1031.6541
  % % % % % %   Suspended simulation;  plot data space exhausted;  SPY SPACE is required.   LIMBUF =  340000.
  % % % % % %   Suspended simulation;  plot data space exhausted;  SPY SPACE is required.   LIMBUF =  340000.
  +++  Time-sharing disabled.   Send  user-keyed interrupt to silence alarm.
