   ---   55   cards of disk file read into card cache cells  1   onward.
 <===> Done with  "/"-card sorting by data class.    Remember that the source file appears different from interpreted input data.
Alternative Transients Program (ATP),  F77 GNU Linux or DOS.  All rights reserved by Can/Am user group of Portland, Oregon, USA.
 Date (dd-mth-yy) and time of day (hh.mm.ss) = 11-Nov-18  11.00.00    Name of disk plot file, if any, is
Consult the 860-page ATP Rule Book of the Can/Am EMTP User Group in Portland,  Oregon, USA.  Source code date is
Total size of LABCOM tables = 16446853 INTEGER words.  31 VARDIM  List Sizes follow:  6002  10K  192K  900  420K  1200  15K
  120K  2250  3800  720  2K  72800  510  800K  800  90  254  800K  100K  3K  15K  192K  120  45K  260K  600  210K  1100  19  200K
--------------------------------------------------+--------------------------------------------------------------------------------
Descriptive interpretation of input data cards.   |  Input data card images are shown below, all 80 columns, character by character
                                                  0         1         2         3         4         5         6         7         8
                                                  012345678901234567890123456789012345678901234567890123456789012345678901234567890
--------------------------------------------------+--------------------------------------------------------------------------------
Comment card.   KOMPAR > 0.                       |C data:Caso0_ReEnergizacao_OTIMIZADA_SemControle.atp
Marker card preceding new EMTP data case.         |BEGIN NEW DATA CASE
Comment card.   KOMPAR > 0.                       |C $DUMMY, XYZ000
Misc. data.     1.000E-06   1.000E+00   0.000E+00 |   1.E-6      1.
Misc. data.  500  1  0  0  1  0  0  1  300  0     |     500       1       0       0       1       0       0       1     300
Statistics data.      1    1    0    0    1    0  |       1       1       0       0       1      -1                               0
Series R-L-C.   5.000E+00  7.500E-02  0.000E+00   |  X0001AX0007A                5.   75.                                         0
Series R-L-C.   5.000E+00  7.500E-02  0.000E+00   |  X0001BX0007B                5.   75.                                         0
Series R-L-C.   5.000E+00  7.500E-02  0.000E+00   |  X0001CX0007C                5.   75.                                         0
Series R-L-C.   2.000E+02  0.000E+00  0.000E+00   |  X0007AX0001A              200.                                               0
Series R-L-C.   2.000E+02  0.000E+00  0.000E+00   |  X0007BX0001B              200.                                               0
Series R-L-C.   2.000E+02  0.000E+00  0.000E+00   |  X0007CX0001C              200.                                               0
Series R-L-C.   1.321E+00  1.401E+00  0.000E+00   |  X0003BXX0008            1.32071401.3                                         0
Series R-L-C.   1.321E+00  1.401E+00  0.000E+00   |  X0003AXX0008            1.32071401.3                                         0
Series R-L-C.   1.321E+00  1.401E+00  0.000E+00   |  X0003CXX0008            1.32071401.3                                         0
Series R-L-C.   3.900E-01  4.138E-01  0.000E+00   |  XX0008                     .39 413.8                                         0
Series R-L-C.   3.000E+01  0.000E+00  0.000E+00   |  XX0009                     30.                                               0
Series R-L-C.   4.000E+02  0.000E+00  0.000E+00   |  X0002AX0010A              400.                                               0
Series R-L-C.   4.000E+02  0.000E+00  0.000E+00   |  X0002BX0010B              400.                                               0
Series R-L-C.   4.000E+02  0.000E+00  0.000E+00   |  X0002CX0010C              400.                                               0
Dynamic $INCLUDE uses fixed RAM cache to delay.   |$INSERT, C:\SimulacaoATP\3\EXT1.pch
J. Marti line, mode  1   parameters begin.        |-1X0010AX0005C                2.  0.00              -2 3
J. Marti line, mode  2   parameters begin.        |-2X0010BX0005A                2.  0.00              -2 3
J. Marti line, mode  3   parameters begin.        |-3X0010CX0005B                2.  0.00              -2 3
TR(1,1 )...  0.671-0.707-0.324                    |  0.67102882 -0.70710678 -0.32400803
TI(1,1 )...  0.000 0.000 0.003                    |  0.00000000  0.00000000  0.00341127
TR(2,1 )...  0.315 0.000 0.889                    |  0.31480489  0.00000000  0.88876566
TI(2,1 )... -0.018 0.000 0.010                    | -0.01839933  0.00000000  0.01048452
TR(3,1 )...  0.671 0.707-0.324                    |  0.67102882  0.70710678 -0.32400803
TI(3,1 )...  0.000 0.000 0.003                    |  0.00000000  0.00000000  0.00341127
Dynamic $INCLUDE uses fixed RAM cache to delay.   |$INSERT, C:\SimulacaoATP\3\OTIM2.pch
J. Marti line, mode  1   parameters begin.        |-1X0004AX0006C                2.  0.00              -2 3
J. Marti line, mode  2   parameters begin.        |-2X0004BX0006A                2.  0.00              -2 3
J. Marti line, mode  3   parameters begin.        |-3X0004CX0006B                2.  0.00              -2 3
TR(1,1 )...  0.671-0.707-0.324                    |  0.67102882 -0.70710678 -0.32400803
TI(1,1 )...  0.000 0.000 0.003                    |  0.00000000  0.00000000  0.00341127
TR(2,1 )...  0.315 0.000 0.889                    |  0.31480489  0.00000000  0.88876566
TI(2,1 )... -0.018 0.000 0.010                    | -0.01839933  0.00000000  0.01048452
TR(3,1 )...  0.671 0.707-0.324                    |  0.67102882  0.70710678 -0.32400803
TI(3,1 )...  0.000 0.000 0.003                    |  0.00000000  0.00000000  0.00341127
Dynamic $INCLUDE uses fixed RAM cache to delay.   |$INSERT, C:\SimulacaoATP\3\OTIM3.pch
J. Marti line, mode  1   parameters begin.        |-1X0005AX0004C                2.  0.00              -2 3
J. Marti line, mode  2   parameters begin.        |-2X0005BX0004A                2.  0.00              -2 3
J. Marti line, mode  3   parameters begin.        |-3X0005CX0004B                2.  0.00              -2 3
TR(1,1 )...  0.671-0.707-0.324                    |  0.67102882 -0.70710678 -0.32400803
TI(1,1 )...  0.000 0.000 0.003                    |  0.00000000  0.00000000  0.00341127
TR(2,1 )...  0.315 0.000 0.889                    |  0.31480489  0.00000000  0.88876566
TI(2,1 )... -0.018 0.000 0.010                    | -0.01839933  0.00000000  0.01048452
TR(3,1 )...  0.671 0.707-0.324                    |  0.67102882  0.70710678 -0.32400803
TI(3,1 )...  0.000 0.000 0.003                    |  0.00000000  0.00000000  0.00341127
Dynamic $INCLUDE uses fixed RAM cache to delay.   |$INSERT, C:\SimulacaoATP\3\EXT4.pch
J. Marti line, mode  1   parameters begin.        |-1X0006AX0003A                2.  0.00              -2 3
J. Marti line, mode  2   parameters begin.        |-2X0006BX0003B                2.  0.00              -2 3
J. Marti line, mode  3   parameters begin.        |-3X0006CX0003C                2.  0.00              -2 3
TR(1,1 )...  0.671-0.707-0.324                    |  0.67102882 -0.70710678 -0.32400803
TI(1,1 )...  0.000 0.000 0.003                    |  0.00000000  0.00000000  0.00341127
TR(2,1 )...  0.315 0.000 0.889                    |  0.31480489  0.00000000  0.88876566
TI(2,1 )... -0.018 0.000 0.010                    | -0.01839933  0.00000000  0.01048452
TR(3,1 )...  0.671 0.707-0.324                    |  0.67102882  0.70710678 -0.32400803
TI(3,1 )...  0.000 0.000 0.003                    |  0.00000000  0.00000000  0.00341127
Blank card ending branches.  IBR, NTOT = 26  27   |BLANK BRANCH
Switch.   5.50E-02  1.00E-03  0.00E+00  3.33E+03  |  X0001BX0002B      .055      .001               3333.STATISTICS               0
Switch.   5.50E-02  1.00E-03  0.00E+00  3.33E+03  |  X0001AX0002A      .055      .001               3333.STATISTICS               0
Switch.   5.50E-02  1.00E-03  0.00E+00  3.33E+03  |  X0001CX0002C      .055      .001               3333.STATISTICS               0
Switch.   1.00E-02  1.00E-03  0.00E+00  0.00E+00  |  X0003CXX0009       .01      .001                    STATISTICS               1
Switch.   7.00E-01  1.00E-03  0.00E+00  0.00E+00  |  X0001BX0002B        .7      .001                    STATISTICS               0
Switch.   7.00E-01  1.00E-03  0.00E+00  0.00E+00  |  X0001AX0002A        .7      .001                    STATISTICS               0
Switch.   7.00E-01  1.00E-03  0.00E+00  0.00E+00  |  X0001CX0002C        .7      .001                    STATISTICS               0
Switch.   0.00E+00  6.98E-01  0.00E+00  0.00E+00  |  X0002AX0010A                .698                                             0
Switch.   0.00E+00  6.98E-01  0.00E+00  0.00E+00  |  X0002BX0010B                .698                                             0
Switch.   0.00E+00  6.98E-01  0.00E+00  0.00E+00  |  X0002CX0010C                .698                                             0
Switch.   7.10E-01  0.00E+00  0.00E+00  0.00E+00  |  X0002AX0010A       .71                                                       0
Switch.   7.10E-01  0.00E+00  0.00E+00  0.00E+00  |  X0002BX0010B       .71                                                       0
Switch.   7.10E-01  0.00E+00  0.00E+00  0.00E+00  |  X0002CX0010C       .71                                                       0
Blank card ending switches.   KSWTCH = 13.        |BLANK SWITCH
Source.   4.29E+05  6.00E+01  0.00E+00 -1.00E+00  |14X0007A  428660.705       60.                                     -1.      100.
Source.   4.29E+05  6.00E+01 -1.20E+02 -1.00E+00  |14X0007B  428660.705       60.     -120.                           -1.      100.
Source.   4.29E+05  6.00E+01 -2.40E+02 -1.00E+00  |14X0007C  428660.705       60.     -240.                           -1.      100.
Blank card ends electric sources.  KCONST = 3     |BLANK SOURCE

     Total network loss  P-loss  by summing injections =   2.681631184947E+08

Card of names for time-step loop output.          |  X0003AX0003BX0003C
Output voltage differences for pairs of A6 names  |-5X0003BX0003CX0003AX0003BX0003CX0003A
Blank card ending requests for output variables.  |BLANK OUTPUT

Column headings for the  7   EMTP output variables follow.  These are divided among the 5 possible classes as follows ....
  First  6     output variables are electric-network voltage differences (upper voltage minus lower voltage);
  Next   1     output variables are branch currents (flowing from the upper node to the lower node);
   Step      Time      X0003A     X0003B     X0003C     X0003B     X0003A     X0003C     X0003C
                                                        X0003C     X0003B     X0003A     XX0009
 ***      Phasor I(0) =  2.4147220E+02                     Switch  "X0001B"  to  "X0002B"  closed in the steady-state.
 ***      Phasor I(0) =  4.1909025E+02                     Switch  "X0001A"  to  "X0002A"  closed in the steady-state.
 ***      Phasor I(0) = -6.5790744E+02                     Switch  "X0001C"  to  "X0002C"  closed in the steady-state.
 ***                    Switch  "X0002A"  to  "X0010A"  closed  after  0.00000000E+00  sec.
 ***                    Switch  "X0002B"  to  "X0010B"  closed  after  0.00000000E+00  sec.
 ***                    Switch  "X0002C"  to  "X0010C"  closed  after  0.00000000E+00  sec.
      0       0.0  273113.442 -329449.54  57176.712 -386626.25 602562.984 -215936.73        0.0
    500     .5E-3   309009.19  -299124.5 -8113.8163 -291010.68 608133.686 -317123.01        0.0
   1000     .1E-2  335426.183  -258772.6 -73495.623 -185276.98 594198.786 -408921.81        0.0
   1500     .0015  349049.101 -209323.75  -136200.8  -73122.95 558372.853  -485249.9        0.0
   2000      .002  505172.402 -35521.704 -531115.63 495593.923 540694.107 -.103629E7        0.0
   2500     .0025  481507.341 132086.549 -625936.83 758023.379 349420.792 -.110744E7        0.0
   3000      .003  407360.789 261397.155 -681465.41 942862.566 145963.633 -.108883E7        0.0
   3500     .0035  303759.509 362106.303 -682563.18 .1044669E7 -58346.794 -986322.69        0.0
   4000      .004   189697.94 459276.659 -631644.86 .1090922E7 -269578.72  -821342.8        0.0
   4500     .0045  70572.3005 538255.353 -567397.45 .1105653E7 -467683.05 -637969.75        0.0
   5000      .005  -64129.574 587910.224 -485343.63 .1073254E7  -652039.8 -421214.06        0.0
   5500     .0055  -256673.54 579444.787 -297950.32 877395.109 -836118.33 -41276.779        0.0
   6000      .006    -407749. 520026.814 -91948.287   611975.1 -927775.81  315800.71        0.0
   6500     .0065  -497995.45 447315.048  79463.303 367851.745 -945310.49 577458.749        0.0
   7000      .007  -547979.38 367967.181 210075.165 157892.016 -915946.56 758054.542        0.0
   7500     .0075  -565550.84 286163.772 294289.921 -8126.1491 -851714.61 859840.759        0.0
   8000      .008  -557208.85 196466.224 350782.161 -154315.94 -753675.08 907991.015        0.0
   8500     .0085  -528533.19 100589.785 391271.659 -290681.87 -629122.97 919804.849        0.0
   9000      .009   -457514.8 12808.2254 394811.145 -382002.92 -470323.03 852325.946        0.0
   9500     .0095  -360145.41  -50774.66 358999.883 -409774.54 -309370.75 719145.297        0.0
  10000       .01  -269891.66 -97537.134 317588.356 -415125.49 -172354.53 587480.018        0.0
 ***                                                             Close switch  "X0003C"  to  "XX0009"  after  1.00010000E-02  sec.
  10500     .0105  -277011.01 -222475.48 29389.4826 -251864.96 -54535.535 306400.496  979.64942
  11000      .011  -206881.31 -264716.33 29276.0528 -293992.39 57835.0291 236157.359 975.868426
  11500     .0115   -148058.7 -312968.04  30950.341 -343918.38 164909.345 179009.039 1031.67803
  12000      .012  -100518.94 -366139.65 34939.6504  -401079.3 265620.708 135458.595 1164.65501
  12500     .0125  -54303.121 -402959.29 37936.4694 -440895.76  348656.17 92239.5907 1264.54898
  13000      .013  -8268.5281 -439743.79 40411.7496 -480155.54  431475.26 48680.2777 1347.05832
  13500     .0135  23.9366062 -482977.15 43126.8364 -526103.98 483001.084 43102.8998 1437.56121
  14000      .014  -17008.089 -585871.28 54464.1819 -640335.46 568863.189  71472.271 1815.47273
  14500     .0145  89309.4088 -565565.22 63762.4632 -629327.69 654874.632 -25546.946 2125.41544
  15000      .015  200222.155 -512793.22 66603.7003 -579396.92 713015.375 -133618.45 2220.12334
  15500     .0155  294372.095 -451174.54 61584.1768 -512758.72 745546.636 -232787.92 2052.80589
  16000      .016  384914.923 -375188.41  52932.138 -428120.54 760103.328 -331982.79  1764.4046
  16500     .0165  472788.717 -277288.14 42556.7235 -319844.87 750076.861 -430231.99 1418.55745
  17000      .017   553619.67  -156598.4 30071.2709 -186669.67 710218.069  -523548.4  1002.3757
  17500     .0175  615252.716 -19066.356 16241.8614 -35308.218 634319.073 -599010.85 541.395381
  18000      .018  638439.193 125906.749 6134.58622 119772.163 512532.444 -632304.61 204.486207
  18500     .0185  629906.574 267565.375 791.589885 266773.785 362341.199 -629114.98 26.3863295
  19000      .019  586702.578 388231.838 -5846.3396 394078.178  198470.74 -592548.92 -194.87799
  19500     .0195  512998.261 487164.221 -14139.226 501303.447 25834.0397 -527137.49 -471.30753
  20000       .02  410251.833 560543.614 -23222.171 583765.785 -150291.78   -433474. -774.07237
  20500     .0205  286230.465 605997.979 -32206.194 638204.174 -319767.51 -318436.66 -1073.5398
  21000      .021  150082.317 622992.854 -40747.666  663740.52 -472910.54 -190829.98 -1358.2555
  21500     .0215  7523.73746 606796.862 -48467.672 655264.534 -599273.12  -55991.41 -1615.5891
  22000      .022  -135921.75 556889.836 -53709.864   610599.7 -692811.58 82211.8827 -1790.3288
  22500     .0225  -263681.53 489870.266 -55755.382 545625.648  -753551.8 207926.147 -1858.5127
  23000      .023  -366552.11 417596.756 -54863.396 472460.152 -784148.86 311688.709 -1828.7799
  23500     .0235  -444431.14 341076.997 -51954.705 393031.702 -785508.13  392476.43 -1731.8235
  24000      .024   -498981.8 260040.967 -47555.948 307596.915 -759022.76 451425.847 -1585.1983
  24500     .0245  -531273.35 176164.672 -41819.262 217983.934 -707438.02  489454.09 -1393.9754
  25000      .025  -542181.69  92954.242 -34996.427 127950.669 -635135.94 507185.268 -1166.5476
  25500     .0255   -534829.1 12502.4637 -27395.524 39897.9882 -547331.57 507433.579 -913.18415
  26000      .026   -513389.7 -65672.064 -18733.109 -46938.955 -447717.63 494656.586 -624.43698
  26500     .0265  -480548.96 -142793.73 -8607.2562 -134186.47 -337755.24 471941.708 -286.90854
  27000      .027  -438465.45 -219928.41 2618.73927 -222547.15 -218537.05 441084.193  87.291309
  27500     .0275  -388107.99 -296026.95 14148.9297 -310175.88 -92081.035 402256.918  471.63099
  28000      .028  -329744.74 -368627.46 25247.4986 -393874.95 38882.7126 354992.242 841.583287
  28500     .0285   -263319.6 -434609.34 35359.8249 -469969.16 171289.741 298679.421 1178.66083
  29000      .029  -188431.04 -490569.11 44008.2035 -534577.31 302138.065 232439.245 1466.94012
  29500     .0295  -105697.22  -533492.7 50771.6923 -584264.39 427795.487 156468.907 1692.38974
  30000       .03  -16969.804 -560496.73 55474.9033 -615971.63 543526.923 72444.7071 1849.16344
  30500     .0305  76160.3585  -567767.4 58168.4878 -625935.89 643927.762 -17991.871 1938.94959
  31000      .031  172163.021 -551483.77 58969.3765 -610453.15 723646.791 -113193.64 1965.64588
  31500     .0315  268198.018  -509799.6 57938.1461 -567737.74 777997.614 -210259.87 1931.27154
  32000      .032  359897.281 -443571.86 55087.5048 -498659.36  803469.14 -304809.78 1836.25016
  32500     .0325  442178.735 -355732.36  50461.431 -406193.79 797911.093  -391717.3  1682.0477
  33000      .033   510232.77 -250445.79 44147.4353 -294593.22 760678.557 -466085.34 1471.58118
  33500     .0335  559931.562 -132899.26 36274.5404  -169173.8 692830.819 -523657.02 1209.15135
  34000      .034  587932.076 -9243.6306 27090.2226 -36333.853 597175.706 -560841.85  903.00742
  34500     .0345  591910.999 113845.307 16988.7448  96856.562 478065.692 -574922.25 566.291493
  35000      .035  570881.404 229828.499 6417.22226 223411.276 341052.905 -564464.18 213.907409
  35500     .0355  525484.497  333070.24 -4217.8762 337288.117 192414.257 -529702.37 -140.59587
  36000      .036  457978.215 419328.529 -14563.874 433892.403  38649.686 -472542.09 -485.46245
  36500     .0365  371942.913 485851.193 -24298.225 510149.419 -113908.28 -396241.14 -809.94085
  37000      .037   271872.59 531276.366 -33125.143 564401.509 -259403.78 -304997.73 -1104.1714
  37500     .0375  162666.469 555387.375  -40788.97 596176.344 -392720.91 -203455.44 -1359.6323
  38000      .038  49234.6938 558867.149 -47065.304 605932.453 -509632.45 -96299.998 -1568.8435
  38500     .0385   -63645.08 543188.059 -51741.549 594929.608 -606833.14 11903.5314 -1724.7183
  39000      .039  -171451.29 510462.056 -54618.422 565080.478 -681913.35 116832.869 -1820.6141
  39500     .0395   -270184.4 463084.363 -55537.265 518621.628 -733268.77  214647.14 -1851.2422
  40000       .04  -356637.83 403333.996 -54412.416 457746.412 -759971.82 302225.413 -1813.7472
  40500     .0405  -428473.55 333182.595 -51248.304 384430.899 -761656.15 377225.251 -1708.2768
  41000      .041  -484092.66 254354.806 -46144.318 300499.124 -738447.47 437948.344 -1538.1439
  41500     .0415   -522478.7 168486.379 -39292.354 207778.733 -690965.08 483186.348 -1309.7451
  42000      .042   -543121.4 77259.8778 -30960.279 108220.156 -620381.27 512161.117 -1032.0093
  % % % % % %   Suspended simulation;  plot data space exhausted;  SPY SPACE is required.   LIMBUF =  340000.
  % % % % % %   Suspended simulation;  plot data space exhausted;  SPY SPACE is required.   LIMBUF =  340000.
  +++  Time-sharing disabled.   Send  user-keyed interrupt to silence alarm.
