   ---   55   cards of disk file read into card cache cells  1   onward.
 <===> Done with  "/"-card sorting by data class.    Remember that the source file appears different from interpreted input data.
Alternative Transients Program (ATP),  F77 GNU Linux or DOS.  All rights reserved by Can/Am user group of Portland, Oregon, USA.
 Date (dd-mth-yy) and time of day (hh.mm.ss) = 11-Nov-18  11.00.00    Name of disk plot file, if any, is
Consult the 860-page ATP Rule Book of the Can/Am EMTP User Group in Portland,  Oregon, USA.  Source code date is
Total size of LABCOM tables = 16446853 INTEGER words.  31 VARDIM  List Sizes follow:  6002  10K  192K  900  420K  1200  15K
  120K  2250  3800  720  2K  72800  510  800K  800  90  254  800K  100K  3K  15K  192K  120  45K  260K  600  210K  1100  19  200K
--------------------------------------------------+--------------------------------------------------------------------------------
Descriptive interpretation of input data cards.   |  Input data card images are shown below, all 80 columns, character by character
                                                  0         1         2         3         4         5         6         7         8
                                                  012345678901234567890123456789012345678901234567890123456789012345678901234567890
--------------------------------------------------+--------------------------------------------------------------------------------
Comment card.   KOMPAR > 0.                       |C data:Caso0_ReEnergizacao_OTIMIZADA_SemControle.atp
Marker card preceding new EMTP data case.         |BEGIN NEW DATA CASE
Comment card.   KOMPAR > 0.                       |C $DUMMY, XYZ000
Misc. data.     1.000E-06   1.000E+00   0.000E+00 |   1.E-6      1.
Misc. data.  500  1  0  0  1  0  0  1  300  0     |     500       1       0       0       1       0       0       1     300
Statistics data.      1    1    0    0    1    0  |       1       1       0       0       1      -1                               0
Series R-L-C.   5.000E+00  7.500E-02  0.000E+00   |  X0001AX0007A                5.   75.                                         0
Series R-L-C.   5.000E+00  7.500E-02  0.000E+00   |  X0001BX0007B                5.   75.                                         0
Series R-L-C.   5.000E+00  7.500E-02  0.000E+00   |  X0001CX0007C                5.   75.                                         0
Series R-L-C.   2.000E+02  0.000E+00  0.000E+00   |  X0007AX0001A              200.                                               0
Series R-L-C.   2.000E+02  0.000E+00  0.000E+00   |  X0007BX0001B              200.                                               0
Series R-L-C.   2.000E+02  0.000E+00  0.000E+00   |  X0007CX0001C              200.                                               0
Series R-L-C.   1.321E+00  1.401E+00  0.000E+00   |  X0003BXX0008            1.32071401.3                                         0
Series R-L-C.   1.321E+00  1.401E+00  0.000E+00   |  X0003AXX0008            1.32071401.3                                         0
Series R-L-C.   1.321E+00  1.401E+00  0.000E+00   |  X0003CXX0008            1.32071401.3                                         0
Series R-L-C.   3.900E-01  4.138E-01  0.000E+00   |  XX0008                     .39 413.8                                         0
Series R-L-C.   3.000E+01  0.000E+00  0.000E+00   |  XX0009                     30.                                               0
Series R-L-C.   1.000E+02  0.000E+00  0.000E+00   |  X0002AX0010A              100.                                               0
Series R-L-C.   1.000E+02  0.000E+00  0.000E+00   |  X0002BX0010B              100.                                               0
Series R-L-C.   1.000E+02  0.000E+00  0.000E+00   |  X0002CX0010C              100.                                               0
Dynamic $INCLUDE uses fixed RAM cache to delay.   |$INSERT, C:\SimulacaoATP\EXT1.pch
J. Marti line, mode  1   parameters begin.        |-1X0010AX0005C                2.  0.00              -2 3
J. Marti line, mode  2   parameters begin.        |-2X0010BX0005A                2.  0.00              -2 3
J. Marti line, mode  3   parameters begin.        |-3X0010CX0005B                2.  0.00              -2 3
TR(1,1 )...  0.671-0.707-0.324                    |  0.67102882 -0.70710678 -0.32400803
TI(1,1 )...  0.000 0.000 0.003                    |  0.00000000  0.00000000  0.00341127
TR(2,1 )...  0.315 0.000 0.889                    |  0.31480489  0.00000000  0.88876566
TI(2,1 )... -0.018 0.000 0.010                    | -0.01839933  0.00000000  0.01048452
TR(3,1 )...  0.671 0.707-0.324                    |  0.67102882  0.70710678 -0.32400803
TI(3,1 )...  0.000 0.000 0.003                    |  0.00000000  0.00000000  0.00341127
Dynamic $INCLUDE uses fixed RAM cache to delay.   |$INSERT, C:\SimulacaoATP\OTIM2.pch
J. Marti line, mode  1   parameters begin.        |-1X0004AX0006C                2.  0.00              -2 3
J. Marti line, mode  2   parameters begin.        |-2X0004BX0006A                2.  0.00              -2 3
J. Marti line, mode  3   parameters begin.        |-3X0004CX0006B                2.  0.00              -2 3
TR(1,1 )...  0.671-0.707-0.324                    |  0.67102882 -0.70710678 -0.32400803
TI(1,1 )...  0.000 0.000 0.003                    |  0.00000000  0.00000000  0.00341127
TR(2,1 )...  0.315 0.000 0.889                    |  0.31480489  0.00000000  0.88876566
TI(2,1 )... -0.018 0.000 0.010                    | -0.01839933  0.00000000  0.01048452
TR(3,1 )...  0.671 0.707-0.324                    |  0.67102882  0.70710678 -0.32400803
TI(3,1 )...  0.000 0.000 0.003                    |  0.00000000  0.00000000  0.00341127
Dynamic $INCLUDE uses fixed RAM cache to delay.   |$INSERT, C:\SimulacaoATP\OTIM3.pch
J. Marti line, mode  1   parameters begin.        |-1X0005AX0004C                2.  0.00              -2 3
J. Marti line, mode  2   parameters begin.        |-2X0005BX0004A                2.  0.00              -2 3
J. Marti line, mode  3   parameters begin.        |-3X0005CX0004B                2.  0.00              -2 3
TR(1,1 )...  0.671-0.707-0.324                    |  0.67102882 -0.70710678 -0.32400803
TI(1,1 )...  0.000 0.000 0.003                    |  0.00000000  0.00000000  0.00341127
TR(2,1 )...  0.315 0.000 0.889                    |  0.31480489  0.00000000  0.88876566
TI(2,1 )... -0.018 0.000 0.010                    | -0.01839933  0.00000000  0.01048452
TR(3,1 )...  0.671 0.707-0.324                    |  0.67102882  0.70710678 -0.32400803
TI(3,1 )...  0.000 0.000 0.003                    |  0.00000000  0.00000000  0.00341127
Dynamic $INCLUDE uses fixed RAM cache to delay.   |$INSERT, C:\SimulacaoATP\EXT4.pch
J. Marti line, mode  1   parameters begin.        |-1X0006AX0003A                2.  0.00              -2 3
J. Marti line, mode  2   parameters begin.        |-2X0006BX0003B                2.  0.00              -2 3
J. Marti line, mode  3   parameters begin.        |-3X0006CX0003C                2.  0.00              -2 3
TR(1,1 )...  0.671-0.707-0.324                    |  0.67102882 -0.70710678 -0.32400803
TI(1,1 )...  0.000 0.000 0.003                    |  0.00000000  0.00000000  0.00341127
TR(2,1 )...  0.315 0.000 0.889                    |  0.31480489  0.00000000  0.88876566
TI(2,1 )... -0.018 0.000 0.010                    | -0.01839933  0.00000000  0.01048452
TR(3,1 )...  0.671 0.707-0.324                    |  0.67102882  0.70710678 -0.32400803
TI(3,1 )...  0.000 0.000 0.003                    |  0.00000000  0.00000000  0.00341127
Blank card ending branches.  IBR, NTOT = 26  27   |BLANK BRANCH
Switch.   5.50E-02  1.00E-03  0.00E+00  3.33E+03  |  X0001BX0002B      .055      .001               3333.STATISTICS               0
Switch.   5.50E-02  1.00E-03  0.00E+00  3.33E+03  |  X0001AX0002A      .055      .001               3333.STATISTICS               0
Switch.   5.50E-02  1.00E-03  0.00E+00  3.33E+03  |  X0001CX0002C      .055      .001               3333.STATISTICS               0
Switch.   1.00E-02  1.00E-03  0.00E+00  0.00E+00  |  X0003CXX0009       .01      .001                    STATISTICS               1
Switch.   7.00E-01  1.00E-03  0.00E+00  0.00E+00  |  X0001BX0002B        .7      .001                    STATISTICS               0
Switch.   7.00E-01  1.00E-03  0.00E+00  0.00E+00  |  X0001AX0002A        .7      .001                    STATISTICS               0
Switch.   7.00E-01  1.00E-03  0.00E+00  0.00E+00  |  X0001CX0002C        .7      .001                    STATISTICS               0
Switch.   0.00E+00  6.98E-01  0.00E+00  0.00E+00  |  X0002AX0010A                .698                                             0
Switch.   0.00E+00  6.98E-01  0.00E+00  0.00E+00  |  X0002BX0010B                .698                                             0
Switch.   0.00E+00  6.98E-01  0.00E+00  0.00E+00  |  X0002CX0010C                .698                                             0
Switch.   7.10E-01  0.00E+00  0.00E+00  0.00E+00  |  X0002AX0010A       .71                                                       0
Switch.   7.10E-01  0.00E+00  0.00E+00  0.00E+00  |  X0002BX0010B       .71                                                       0
Switch.   7.10E-01  0.00E+00  0.00E+00  0.00E+00  |  X0002CX0010C       .71                                                       0
Blank card ending switches.   KSWTCH = 13.        |BLANK SWITCH
Source.   4.29E+05  6.00E+01  0.00E+00 -1.00E+00  |14X0007A  428660.705       60.                                     -1.      100.
Source.   4.29E+05  6.00E+01 -1.20E+02 -1.00E+00  |14X0007B  428660.705       60.     -120.                           -1.      100.
Source.   4.29E+05  6.00E+01 -2.40E+02 -1.00E+00  |14X0007C  428660.705       60.     -240.                           -1.      100.
Blank card ends electric sources.  KCONST = 3     |BLANK SOURCE

     Total network loss  P-loss  by summing injections =   1.090271314090E+08

Card of names for time-step loop output.          |  X0003AX0003BX0003C
Output voltage differences for pairs of A6 names  |-5X0003BX0003CX0003AX0003BX0003CX0003A
Blank card ending requests for output variables.  |BLANK OUTPUT

Column headings for the  7   EMTP output variables follow.  These are divided among the 5 possible classes as follows ....
  First  6     output variables are electric-network voltage differences (upper voltage minus lower voltage);
  Next   1     output variables are branch currents (flowing from the upper node to the lower node);
   Step      Time      X0003A     X0003B     X0003C     X0003B     X0003A     X0003C     X0003C
                                                        X0003C     X0003B     X0003A     XX0009
 ***      Phasor I(0) =  6.2149258E+02                     Switch  "X0001B"  to  "X0002B"  closed in the steady-state.
 ***      Phasor I(0) =  1.7070730E+02                     Switch  "X0001A"  to  "X0002A"  closed in the steady-state.
 ***      Phasor I(0) = -7.9568127E+02                     Switch  "X0001C"  to  "X0002C"  closed in the steady-state.
 ***                    Switch  "X0002A"  to  "X0010A"  closed  after  0.00000000E+00  sec.
 ***                    Switch  "X0002B"  to  "X0010B"  closed  after  0.00000000E+00  sec.
 ***                    Switch  "X0002C"  to  "X0010C"  closed  after  0.00000000E+00  sec.
      0       0.0  435146.843 -295649.49  -132942.4 -162707.09 730796.334 -568089.25        0.0
    500     .5E-3  442795.553 -228301.75 -208820.33 -19481.423 671097.306 -651615.88        0.0
   1000     .1E-2   436982.01 -153516.29 -277045.06 123528.768 590498.302 -714027.07        0.0
   1500     .0015  415348.523 -72841.813 -335522.52 262680.708 488190.336 -750871.04        0.0
   2000      .002  383237.825 79981.0706 -479987.29 559968.364 303256.754 -863225.12        0.0
   2500     .0025  322500.401   199326.6 -516099.89 715426.492 123173.801 -838600.29        0.0
   3000      .003  242798.627 292444.684 -528126.91 820571.598 -49646.057 -770925.54        0.0
   3500     .0035  150057.946  366487.06 -511075.47 877562.532 -216429.11 -661133.42        0.0
   4000      .004   53652.422 428644.403 -469213.84 897858.244 -374991.98 -522866.26        0.0
   4500     .0045  -42648.894 473556.927 -414467.94 888024.866 -516205.82 -371819.05        0.0
   5000      .005  -140484.75 499172.083  -346714.8 845886.878 -639656.83 -206230.05        0.0
   5500     .0055  -239298.91 487493.311  -242365.7 729859.015 -726792.23 -3066.7896        0.0
   6000      .006  -317618.46 451093.009 -127055.88 578148.886 -768711.47 190562.584        0.0
   6500     .0065  -377440.66 405705.914 -22023.683 427729.597 -783146.57 355416.974        0.0
   7000      .007  -421044.09  353620.04 69457.4965 284162.544 -774664.13 490501.583        0.0
   7500     .0075  -446695.44 295906.672 146379.267 149527.405 -742602.11 593074.706        0.0
   8000      .008  -456481.37 230991.254 214096.105 16895.1492 -687472.62 670577.471        0.0
   8500     .0085  -452057.01 159909.662 274317.357  -114407.7 -611966.67 726374.363        0.0
   9000      .009  -427684.39 88296.7265 320609.253 -232312.53 -515981.11 748293.638        0.0
   9500     .0095   -389833.8 23201.3147 348795.945 -325594.63 -413035.12 738629.748        0.0
  10000       .01  -344034.72 -40129.742 367397.878 -407527.62 -303904.98 711432.599        0.0
 ***                                                             Close switch  "X0003C"  to  "XX0009"  after  1.00010000E-02  sec.
  10500     .0105  -404324.49 -217454.05 39106.9616 -256561.01 -186870.44 443431.454 1303.56539
  11000      .011  -347390.08 -288621.23 41769.7118 -330390.94 -58768.846 389159.789 1392.32373
  11500     .0115  -279537.22 -357296.87 44136.4142 -401433.28 77759.6475 323673.635 1471.21381
  12000      .012  -210745.36 -427819.94 47746.1836 -475566.12 217074.576 258491.546 1591.53945
  12500     .0125  -128431.98 -472987.18 48880.0904 -521867.27   344555.2 177312.075 1629.33635
  13000      .013   -27250.78  -504786.4 47394.7849 -552181.18 477535.618  74645.565 1579.82616
  13500     .0135  32114.1871 -529972.27 45191.4674 -575163.73 562086.455 13077.2803 1506.38225
  14000      .014  38934.3486 -624766.72 54592.1235 -679358.84 663701.067 15657.7749 1819.73745
  14500     .0145  169365.669 -580742.45 64563.1509 -645305.61 750108.124 -104802.52 2152.10503
  15000      .015   296888.67 -496020.53 69901.5364 -565922.06 792909.199 -226987.13 2330.05121
  15500     .0155  390826.116 -407211.89 67019.2721 -474231.16 798038.003 -323806.84 2233.97574
  16000      .016  466018.105 -313069.82 59812.5252 -372882.35  779087.93 -406205.58 1993.75084
  16500     .0165  527673.115 -205070.69 50307.8241 -255378.52 732743.809 -477365.29 1676.92747
  17000      .017   576392.39  -83434.47 37622.5856 -121057.06 659826.861  -538769.8 1254.08619
  17500     .0175    605596.5 43266.3426 22073.6979 21192.6446 562330.158  -583522.8 735.789932
  18000      .018  598205.111  166888.35 9939.62884 156948.721 431316.761 -588265.48 331.320961
  18500     .0185  566834.772 282464.036 3851.79667 278612.239 284370.736 -562982.98 128.393222
  19000      .019   511781.62  376412.68 -2802.1036 379214.784  135368.94 -514583.72 -93.403453
  19500     .0195  439166.735 453282.854 -10827.742 464110.596 -14116.119 -449994.48 -360.92474
  20000       .02  348686.849 511659.764 -19587.535 531247.299 -162972.92 -368274.38 -652.91784
  20500     .0205  245643.322 550468.621  -28310.93 578779.551  -304825.3 -273954.25 -943.69765
  21000      .021  135893.598 570800.009 -36913.812  607713.82 -434906.41 -172807.41 -1230.4604
  21500     .0215  20270.4277 567045.886 -45250.742 612296.628 -546775.46  -65521.17 -1508.3581
  22000      .022  -101452.78 534483.339 -51388.769 585872.109 -635936.12 50064.0066  -1712.959
  22500     .0225  -214938.83 487121.297 -54145.061 541266.357 -702060.13  160793.77 -1804.8354
  23000      .023  -311368.45 434999.962  -53473.68 488473.643 -746368.41 257894.767  -1782.456
  23500     .0235  -390949.91 376158.861 -50334.528  426493.39 -767108.77 340615.378 -1677.8176
  24000      .024  -454994.91 307444.236 -45435.446 352879.682 -762439.14 409559.461 -1514.5149
  24500     .0245  -502689.12 228776.944 -39088.203 267865.146 -731466.06 463600.918 -1302.9401
  25000      .025  -531734.04 143278.822 -31734.088 175012.909 -675012.86 499999.953 -1057.8029
  25500     .0255  -542222.23 53715.1278 -23925.518 77640.6462 -595937.36  518296.71 -797.51728
  26000      .026  -536130.15 -38944.124 -15457.614  -23486.51 -497186.03 520672.535  -515.2538
  26500     .0265  -514332.07 -133605.32 -5764.0152  -127841.3 -380726.75 508568.055 -192.13384
  27000      .027  -477726.94 -228577.93 4982.50836 -233560.43 -249149.01 482709.446 166.083612
  27500     .0275  -426707.02 -319965.84 16093.0841 -336058.92 -106741.18 442800.102 536.436137
  28000      .028  -361953.47  -402996.3 26884.6824 -429880.99 41042.8308 388838.155 896.156079
  28500     .0285  -284820.35 -473125.58 36829.1262 -509954.71 188305.231 321649.476 1227.63754
  29000      .029  -196791.08  -526489.9 45427.5001  -571917.4 329698.822 242218.578    1514.25
  29500     .0295  -100543.83 -560733.18 52180.8274   -612914. 460189.342 152724.662 1739.36091
  30000       .03  -61.509434 -574754.65 56844.9762 -631599.62 574693.136 56906.4856 1894.83254
  30500     .0305  101334.774 -567101.95 59463.1903 -626565.14 668436.719 -41871.584 1982.10634
  31000      .031  201171.845 -536317.99 60195.0124   -596513. 737489.833 -140976.83 2006.50041
  31500     .0315  296436.247 -482662.56 59146.6094 -541809.17 779098.812 -237289.64 1971.55365
  32000      .032  383239.176 -408682.35 56348.3531  -465030.7 791921.527 -326890.82 1878.27844
  32500     .0325  457544.558  -318332.8 51838.4195 -370171.22 775877.357 -405706.14 1727.94732
  33000      .033  516002.918 -215911.61  45678.046 -261589.66 731914.531 -470324.87 1522.60153
  33500     .0335  556076.147 -105866.28 37943.4887 -143809.77 661942.426 -518132.66 1264.78296
  34000      .034  575835.755 7039.71399 28822.1863 -21782.472 568796.041 -547013.57 960.739543
  34500     .0345  574008.082 117903.186   18676.28 99226.9055 456104.896  -555331.8 622.542667
  35000      .035  550207.512 222073.314 7960.33497 214112.979 328134.198 -542247.18 265.344499
  35500     .0355   505211.98 315665.264 -2885.8929 318551.156 189546.717 -508097.87 -96.196429
  36000      .036  440958.427 395806.318 -13466.468 409272.786 45152.1088 -454424.89 -448.88226
  36500     .0365  360313.188 460521.585 -23415.181 483936.767  -100208.4 -383728.37 -780.50604
  37000      .037  266816.274   508533.1 -32401.615 540934.714 -241716.83 -299217.89 -1080.0538
  37500     .0375  164337.791  539028.92 -40155.141 579184.062 -374691.13 -204492.93 -1338.5047
  38000      .038  56812.0173 551523.502 -46457.848  597981.35 -494711.48 -103269.87 -1548.5949
  38500     .0385    -51782.2 545953.478 -51115.715 597069.193 -597735.68  666.48458 -1703.8572
  39000      .039  -157427.66  522804.34 -53948.559 576752.899   -680232. 103479.104 -1798.2853
  39500     .0395   -256268.9 483021.016 -54811.826 537832.842 -739289.91 201457.071 -1827.0609
  40000       .04  -344894.09 427813.446 -53629.457 481442.903 -772707.54 291264.636 -1787.6486
  40500     .0405   -420479.7 358603.045 -50412.387 409015.432 -779082.75 370067.317 -1680.4129
  41000      .041  -480754.56 277148.417 -45264.741 322413.158 -757902.97 435489.816 -1508.8247
  41500     .0415  -523950.74 185675.875 -38384.079 224059.954 -709626.61 485566.661 -1279.4693
  42000      .042  -548844.96 86891.5268 -30046.378 116937.904 -635736.49 518798.581 -1001.5459
  % % % % % %   Suspended simulation;  plot data space exhausted;  SPY SPACE is required.   LIMBUF =  340000.
  % % % % % %   Suspended simulation;  plot data space exhausted;  SPY SPACE is required.   LIMBUF =  340000.
  +++  Time-sharing disabled.   Send  user-keyed interrupt to silence alarm.
