   ---   55   cards of disk file read into card cache cells  1   onward.
 <===> Done with  "/"-card sorting by data class.    Remember that the source file appears different from interpreted input data.
Alternative Transients Program (ATP),  F77 GNU Linux or DOS.  All rights reserved by Can/Am user group of Portland, Oregon, USA.
 Date (dd-mth-yy) and time of day (hh.mm.ss) = 11-Nov-18  11.00.00    Name of disk plot file, if any, is
Consult the 860-page ATP Rule Book of the Can/Am EMTP User Group in Portland,  Oregon, USA.  Source code date is
Total size of LABCOM tables = 16446853 INTEGER words.  31 VARDIM  List Sizes follow:  6002  10K  192K  900  420K  1200  15K
  120K  2250  3800  720  2K  72800  510  800K  800  90  254  800K  100K  3K  15K  192K  120  45K  260K  600  210K  1100  19  200K
--------------------------------------------------+--------------------------------------------------------------------------------
Descriptive interpretation of input data cards.   |  Input data card images are shown below, all 80 columns, character by character
                                                  0         1         2         3         4         5         6         7         8
                                                  012345678901234567890123456789012345678901234567890123456789012345678901234567890
--------------------------------------------------+--------------------------------------------------------------------------------
Comment card.   KOMPAR > 0.                       |C data:Caso0_ReEnergizacao_OTIMIZADA_SemControle.atp
Marker card preceding new EMTP data case.         |BEGIN NEW DATA CASE
Comment card.   KOMPAR > 0.                       |C $DUMMY, XYZ000
Misc. data.     1.000E-06   1.000E+00   0.000E+00 |   1.E-6      1.
Misc. data.  500  1  0  0  1  0  0  1  300  0     |     500       1       0       0       1       0       0       1     300
Statistics data.      1    1    0    0    1    0  |       1       1       0       0       1      -1                               0
Series R-L-C.   5.000E+00  7.500E-02  0.000E+00   |  X0001AX0007A                5.   75.                                         0
Series R-L-C.   5.000E+00  7.500E-02  0.000E+00   |  X0001BX0007B                5.   75.                                         0
Series R-L-C.   5.000E+00  7.500E-02  0.000E+00   |  X0001CX0007C                5.   75.                                         0
Series R-L-C.   2.000E+02  0.000E+00  0.000E+00   |  X0007AX0001A              200.                                               0
Series R-L-C.   2.000E+02  0.000E+00  0.000E+00   |  X0007BX0001B              200.                                               0
Series R-L-C.   2.000E+02  0.000E+00  0.000E+00   |  X0007CX0001C              200.                                               0
Series R-L-C.   1.321E+00  1.401E+00  0.000E+00   |  X0003BXX0008            1.32071401.3                                         0
Series R-L-C.   1.321E+00  1.401E+00  0.000E+00   |  X0003AXX0008            1.32071401.3                                         0
Series R-L-C.   1.321E+00  1.401E+00  0.000E+00   |  X0003CXX0008            1.32071401.3                                         0
Series R-L-C.   3.900E-01  4.138E-01  0.000E+00   |  XX0008                     .39 413.8                                         0
Series R-L-C.   3.000E+01  0.000E+00  0.000E+00   |  XX0009                     30.                                               0
Series R-L-C.   9.000E+02  0.000E+00  0.000E+00   |  X0002AX0010A              900.                                               0
Series R-L-C.   9.000E+02  0.000E+00  0.000E+00   |  X0002BX0010B              900.                                               0
Series R-L-C.   9.000E+02  0.000E+00  0.000E+00   |  X0002CX0010C              900.                                               0
Dynamic $INCLUDE uses fixed RAM cache to delay.   |$INSERT, C:\SimulacaoATP\EXT1.pch
J. Marti line, mode  1   parameters begin.        |-1X0010AX0005C                2.  0.00              -2 3
J. Marti line, mode  2   parameters begin.        |-2X0010BX0005A                2.  0.00              -2 3
J. Marti line, mode  3   parameters begin.        |-3X0010CX0005B                2.  0.00              -2 3
TR(1,1 )...  0.671-0.707-0.324                    |  0.67102882 -0.70710678 -0.32400803
TI(1,1 )...  0.000 0.000 0.003                    |  0.00000000  0.00000000  0.00341127
TR(2,1 )...  0.315 0.000 0.889                    |  0.31480489  0.00000000  0.88876566
TI(2,1 )... -0.018 0.000 0.010                    | -0.01839933  0.00000000  0.01048452
TR(3,1 )...  0.671 0.707-0.324                    |  0.67102882  0.70710678 -0.32400803
TI(3,1 )...  0.000 0.000 0.003                    |  0.00000000  0.00000000  0.00341127
Dynamic $INCLUDE uses fixed RAM cache to delay.   |$INSERT, C:\SimulacaoATP\OTIM2.pch
J. Marti line, mode  1   parameters begin.        |-1X0004AX0006C                2.  0.00              -2 3
J. Marti line, mode  2   parameters begin.        |-2X0004BX0006A                2.  0.00              -2 3
J. Marti line, mode  3   parameters begin.        |-3X0004CX0006B                2.  0.00              -2 3
TR(1,1 )...  0.671-0.707-0.324                    |  0.67102882 -0.70710678 -0.32400803
TI(1,1 )...  0.000 0.000 0.003                    |  0.00000000  0.00000000  0.00341127
TR(2,1 )...  0.315 0.000 0.889                    |  0.31480489  0.00000000  0.88876566
TI(2,1 )... -0.018 0.000 0.010                    | -0.01839933  0.00000000  0.01048452
TR(3,1 )...  0.671 0.707-0.324                    |  0.67102882  0.70710678 -0.32400803
TI(3,1 )...  0.000 0.000 0.003                    |  0.00000000  0.00000000  0.00341127
Dynamic $INCLUDE uses fixed RAM cache to delay.   |$INSERT, C:\SimulacaoATP\OTIM3.pch
J. Marti line, mode  1   parameters begin.        |-1X0005AX0004C                2.  0.00              -2 3
J. Marti line, mode  2   parameters begin.        |-2X0005BX0004A                2.  0.00              -2 3
J. Marti line, mode  3   parameters begin.        |-3X0005CX0004B                2.  0.00              -2 3
TR(1,1 )...  0.671-0.707-0.324                    |  0.67102882 -0.70710678 -0.32400803
TI(1,1 )...  0.000 0.000 0.003                    |  0.00000000  0.00000000  0.00341127
TR(2,1 )...  0.315 0.000 0.889                    |  0.31480489  0.00000000  0.88876566
TI(2,1 )... -0.018 0.000 0.010                    | -0.01839933  0.00000000  0.01048452
TR(3,1 )...  0.671 0.707-0.324                    |  0.67102882  0.70710678 -0.32400803
TI(3,1 )...  0.000 0.000 0.003                    |  0.00000000  0.00000000  0.00341127
Dynamic $INCLUDE uses fixed RAM cache to delay.   |$INSERT, C:\SimulacaoATP\EXT4.pch
J. Marti line, mode  1   parameters begin.        |-1X0006AX0003A                2.  0.00              -2 3
J. Marti line, mode  2   parameters begin.        |-2X0006BX0003B                2.  0.00              -2 3
J. Marti line, mode  3   parameters begin.        |-3X0006CX0003C                2.  0.00              -2 3
TR(1,1 )...  0.671-0.707-0.324                    |  0.67102882 -0.70710678 -0.32400803
TI(1,1 )...  0.000 0.000 0.003                    |  0.00000000  0.00000000  0.00341127
TR(2,1 )...  0.315 0.000 0.889                    |  0.31480489  0.00000000  0.88876566
TI(2,1 )... -0.018 0.000 0.010                    | -0.01839933  0.00000000  0.01048452
TR(3,1 )...  0.671 0.707-0.324                    |  0.67102882  0.70710678 -0.32400803
TI(3,1 )...  0.000 0.000 0.003                    |  0.00000000  0.00000000  0.00341127
Blank card ending branches.  IBR, NTOT = 26  27   |BLANK BRANCH
Switch.   5.50E-02  1.00E-03  0.00E+00  3.33E+03  |  X0001BX0002B      .055      .001               3333.STATISTICS               0
Switch.   5.50E-02  1.00E-03  0.00E+00  3.33E+03  |  X0001AX0002A      .055      .001               3333.STATISTICS               0
Switch.   5.50E-02  1.00E-03  0.00E+00  3.33E+03  |  X0001CX0002C      .055      .001               3333.STATISTICS               0
Switch.   1.00E-02  1.00E-03  0.00E+00  0.00E+00  |  X0003CXX0009       .01      .001                    STATISTICS               1
Switch.   7.00E-01  1.00E-03  0.00E+00  0.00E+00  |  X0001BX0002B        .7      .001                    STATISTICS               0
Switch.   7.00E-01  1.00E-03  0.00E+00  0.00E+00  |  X0001AX0002A        .7      .001                    STATISTICS               0
Switch.   7.00E-01  1.00E-03  0.00E+00  0.00E+00  |  X0001CX0002C        .7      .001                    STATISTICS               0
Switch.   0.00E+00  6.98E-01  0.00E+00  0.00E+00  |  X0002AX0010A                .698                                             0
Switch.   0.00E+00  6.98E-01  0.00E+00  0.00E+00  |  X0002BX0010B                .698                                             0
Switch.   0.00E+00  6.98E-01  0.00E+00  0.00E+00  |  X0002CX0010C                .698                                             0
Switch.   7.10E-01  0.00E+00  0.00E+00  0.00E+00  |  X0002AX0010A       .71                                                       0
Switch.   7.10E-01  0.00E+00  0.00E+00  0.00E+00  |  X0002BX0010B       .71                                                       0
Switch.   7.10E-01  0.00E+00  0.00E+00  0.00E+00  |  X0002CX0010C       .71                                                       0
Blank card ending switches.   KSWTCH = 13.        |BLANK SWITCH
Source.   4.29E+05  6.00E+01  0.00E+00 -1.00E+00  |14X0007A  428660.705       60.                                     -1.      100.
Source.   4.29E+05  6.00E+01 -1.20E+02 -1.00E+00  |14X0007B  428660.705       60.     -120.                           -1.      100.
Source.   4.29E+05  6.00E+01 -2.40E+02 -1.00E+00  |14X0007C  428660.705       60.     -240.                           -1.      100.
Blank card ends electric sources.  KCONST = 3     |BLANK SOURCE

     Total network loss  P-loss  by summing injections =   2.330347229787E+08

Card of names for time-step loop output.          |  X0003AX0003BX0003C
Output voltage differences for pairs of A6 names  |-5X0003BX0003CX0003AX0003BX0003CX0003A
Blank card ending requests for output variables.  |BLANK OUTPUT

Column headings for the  7   EMTP output variables follow.  These are divided among the 5 possible classes as follows ....
  First  6     output variables are electric-network voltage differences (upper voltage minus lower voltage);
  Next   1     output variables are branch currents (flowing from the upper node to the lower node);
   Step      Time      X0003A     X0003B     X0003C     X0003B     X0003A     X0003C     X0003C
                                                        X0003C     X0003B     X0003A     XX0009
 ***      Phasor I(0) = -5.3872964E+00                     Switch  "X0001B"  to  "X0002B"  closed in the steady-state.
 ***      Phasor I(0) =  3.6351502E+02                     Switch  "X0001A"  to  "X0002A"  closed in the steady-state.
 ***      Phasor I(0) = -3.5501579E+02                     Switch  "X0001C"  to  "X0002C"  closed in the steady-state.
 ***                    Switch  "X0002A"  to  "X0010A"  closed  after  0.00000000E+00  sec.
 ***                    Switch  "X0002B"  to  "X0010B"  closed  after  0.00000000E+00  sec.
 ***                    Switch  "X0002C"  to  "X0010C"  closed  after  0.00000000E+00  sec.
      0       0.0  104384.478 -220825.36  113071.85 -333897.21 325209.838 8687.37237        0.0
    500     .5E-3  138342.688 -217110.61 76557.4444 -293668.05 355453.294 -61785.243        0.0
   1000     .1E-2  168012.811 -206026.87 36838.9562 -242865.83  374039.68 -131173.85        0.0
   1500     .0015  190926.003 -187901.69 -4083.7556 -183817.94 378827.694 -195009.76        0.0
   2000      .002  553773.556 -147915.25 -467319.91 319404.659 701688.811 -.102109E7        0.0
   2500     .0025   574360.66 -7891.1958 -598219.25 590328.055 582251.856 -.117258E7        0.0
   3000      .003  525783.697 124399.127 -690302.73 814701.853  401384.57 -.121609E7        0.0
   3500     .0035  440602.828  240320.52  -724156.3 964476.822 200282.308 -.116476E7        0.0
   4000      .004  334674.498  365148.96 -692852.98 .1058002E7 -30474.462 -.102753E7        0.0
   4500     .0045  212642.021 480313.849 -644653.19 .1124967E7 -267671.83 -857295.21        0.0
   5000      .005   63793.566  565332.71 -572107.24  .113744E7 -501539.14  -635900.8        0.0
   5500     .0055  -205855.05  615858.93 -363708.99 979567.916 -821713.98 -157853.94        0.0
   6000      .006  -438137.64 601020.973 -132816.59 733837.564 -.103916E7 305321.045        0.0
   6500     .0065   -574481.1 550829.791 69511.6197 481318.172 -.112531E7  643992.72        0.0
   7000      .007  -648336.04  474658.06 234207.283 240450.777 -.112299E7 882543.325        0.0
   7500     .0075  -680254.91 380876.529 344676.494  36200.035 -.106113E7 .1024931E7        0.0
   8000      .008   -674962.3 266305.114 417321.447 -151016.33 -941267.42 .1092284E7        0.0
   8500     .0085  -636699.46 136251.991 466577.658 -330325.67 -772951.45 .1103277E7        0.0
   9000      .009  -535015.42 9223.79566  460943.64 -451719.84 -544239.22 995959.064        0.0
   9500     .0095  -384343.51 -96792.247 404545.747 -501337.99 -287551.26 788889.254        0.0
  10000       .01  -244197.08 -174057.54 339943.196 -514000.74 -70139.539 584140.278        0.0
 ***                                                             Close switch  "X0003C"  to  "XX0009"  after  1.00010000E-02  sec.
  10500     .0105  -213679.58  -310701.9 29221.0885 -339922.99 97022.3275 242900.666 974.036283
  11000      .011  -113476.85  -344977.2 26647.0924 -371624.29 231500.356 140123.938 888.236412
  11500     .0115  -39666.929 -375152.67 26259.2435 -401411.91 335485.739 65926.1726 875.308116
  12000      .012  8032.00107 -401857.58 28911.9734 -430769.55 409889.579 20879.9723 963.732446
  12500     .0125  39183.3053 -408114.93 31471.4355 -439586.37 447298.235 -7711.8699 1049.04785
  13000      .013  51618.1931 -414229.03 34686.0594 -448915.09 465847.222 -16932.134 1156.20198
  13500     .0135  14139.3765  -432535.1 39051.7753 -471586.88 446674.479 24912.3988 1301.72584
  14000      .014  -45231.466 -523064.05 52766.9413 -575830.99 477832.581 97998.4076 1758.89804
  14500     .0145  36157.5781 -493630.44 63799.5164 -557429.95 529788.016 27641.9382 2126.65055
  15000      .015  128894.807 -446024.92 67058.8215 -513083.74 574919.725 -61835.986 2235.29405
  15500     .0155  213225.502 -402628.41 61424.8279 -464053.24 615853.916 -151800.67 2047.49426
  16000      .016  305195.377 -353035.72 51771.7297 -404807.45 658231.095 -253423.65 1725.72432
  16500     .0165  406563.827 -285096.33  40349.337 -325445.67 691660.161 -366214.49  1344.9779
  17000      .017  511693.756 -192822.95 27058.1002 -219881.05  704516.71 -484635.66 901.936673
  17500     .0175  602496.635 -76841.218 12988.1944 -89829.413 679337.853 -589508.44 432.939814
  18000      .018  653259.259 57103.3452 3455.27968 53648.0655 596155.914 -649803.98 115.175989
  18500     .0185  667682.786 199165.249 -949.98631 200115.236 468517.537 -668632.77  -31.66621
  19000      .019  640156.369 330379.484 -6991.7383 337371.222 309776.884 -647148.11 -233.05794
  19500     .0195  573242.774 448215.718 -15058.153 463273.871 125027.056 -588300.93 -501.93845
  20000       .02  467604.111 545613.917 -24164.732 569778.648 -78009.805 -491768.84 -805.49106
  20500     .0205  331443.713 616353.639 -33286.662   649640.3 -284909.93 -364730.37 -1109.5554
  21000      .021  176135.112 655517.209 -41966.813 697484.022  -479382.1 -218101.92 -1398.8938
  21500     .0215  11068.2266 654178.297 -49709.669 703887.966 -643110.07 -60777.895  -1656.989
  22000      .022  -154035.44 609845.449 -54722.566 664568.015 -763880.89 99312.8772 -1824.0855
  22500     .0225  -298620.39  539832.13 -56343.893 596176.023 -838452.52 242276.493 -1878.1298
  23000      .023  -411468.55  457085.99 -55012.261 512098.252 -868554.54 356456.285  -1833.742
  23500     .0235  -491993.58 364032.416 -51829.986 415862.402   -856026. 440163.598 -1727.6662
  24000      .024  -542053.82 262839.791 -47393.611 310233.402 -804893.61 494660.211  -1579.787
  24500     .0245  -563712.61 158457.703 -41832.235 200289.938 -722170.31 521880.374 -1394.4078
  25000      .025  -559870.11 57951.7492 -35325.133 93276.8822 -617821.86 524544.978 -1177.5044
  25500     .0255   -536444.2 -33750.571 -28068.528 -5682.0426 -502693.63 508375.675  -935.6176
  26000      .026  -500312.83 -115628.35 -19635.042 -95993.306 -384684.48 480677.786 -654.50141
  26500     .0265  -456202.14  -188750.2 -9540.3442 -179209.85 -267451.94 446661.793 -318.01147
  27000      .027  -407607.99 -255207.99 1820.02674 -257028.02   -152400.  409428.02 60.6675579
  27500     .0275  -356069.34 -315844.61 13572.4666 -329417.07 -40224.737  369641.81 452.415553
  28000      .028  -301676.19 -370742.92 24912.1971 -395655.12 69066.7282 326588.388  830.40657
  28500     .0285  -243425.17 -419680.14 35236.4102 -454916.55 176254.978 278661.575 1174.54701
  29000      .029  -179314.64 -462044.18 44038.4128 -506082.59 282729.538 223353.053 1467.94709
  29500     .0295  -108112.97 -496980.95 50891.7993 -547872.75 388867.983  159004.77 1696.39331
  30000       .03  -29877.175 -522668.47 55644.6217 -578313.09 492791.296 85521.7963 1854.82072
  30500     .0305  55377.3927 -535077.18 58378.4543 -593455.63 590454.571 3001.06158 1945.94848
  31000      .031  147212.667 -529132.75 59224.7314 -588357.48  676345.42 -87987.935 1974.15771
  31500     .0315  243184.198 -501086.91 58235.8451 -559322.76 744271.111 -184948.35 1941.19484
  32000      .032   338609.12  -449544.5 55405.5213 -504950.02  788153.62  -283203.6 1846.85071
  32500     .0325  427499.651 -375099.97  50762.567 -425862.54 802599.621 -376737.08 1692.08557
  33000      .033  503763.762 -279831.43 44389.3575 -324220.78 783595.187  -459374.4 1479.64525
  33500     .0335  561855.169 -167464.14  36423.864 -203888.01  729319.31 -525431.31  1214.1288
  34000      .034  597104.787 -43558.748  27140.077 -70698.825 640663.535 -569964.71 904.669234
  34500     .0345  606151.876 84886.4502 16967.4656 67918.9846 521265.426 -589184.41 565.582186
  35000      .035  587397.706  210224.18 6379.40693 203844.773 377173.526  -581018.3 212.646898
  35500     .0355  541363.769 325160.552 -4210.2807 329370.832 216203.217 -545574.05 -140.34269
  36000      .036  470665.047 423521.766 -14458.718 437980.485 47143.2806 -485123.77 -481.95728
  36500     .0365  379619.397 500642.008 -24063.717 524705.725 -121022.61 -403683.11  -802.1239
  37000      .037  273677.649 553556.187 -32754.374 586310.561 -279878.54 -306432.02 -1091.8125
  37500     .0375  158728.358 580998.209 -40298.897 621297.105 -422269.85 -199027.26 -1343.2966
  38000      .038  40550.1517 583309.169 -46489.526 629798.695 -542759.02 -87039.678 -1549.6509
  38500     .0385  -75433.009 562364.276 -51119.457 613483.734 -637797.28 24313.5512 -1703.9819
  39000      .039  -184345.81 521324.487 -53985.636 575310.123  -705670.3 130360.173 -1799.5212
  39500     .0395  -282170.76 464067.519 -54920.529 518988.048 -746238.27 227250.227 -1830.6843
  40000       .04  -366011.42 394520.718 -53828.769 448349.487 -760532.14 312182.653 -1794.2923
  40500     .0405  -434093.78  316202.17 -50706.449 366908.619 -750295.95 383387.335  -1690.215
  41000      .041  -485514.63 232048.267 -45646.554 277694.821  -717562.9  439868.08 -1521.5518
  41500     .0415  -519956.69 144398.493 -38835.918 183234.411 -664355.19 481120.775 -1294.5306
  42000      .042  -537505.33 55041.4133 -30537.266 85578.6791 -592546.74 506968.061 -1017.9089
  % % % % % %   Suspended simulation;  plot data space exhausted;  SPY SPACE is required.   LIMBUF =  340000.
  % % % % % %   Suspended simulation;  plot data space exhausted;  SPY SPACE is required.   LIMBUF =  340000.
  +++  Time-sharing disabled.   Send  user-keyed interrupt to silence alarm.
