   ---   55   cards of disk file read into card cache cells  1   onward.
 <===> Done with  "/"-card sorting by data class.    Remember that the source file appears different from interpreted input data.
Alternative Transients Program (ATP),  F77 GNU Linux or DOS.  All rights reserved by Can/Am user group of Portland, Oregon, USA.
 Date (dd-mth-yy) and time of day (hh.mm.ss) = 11-Nov-18  11.00.00    Name of disk plot file, if any, is
Consult the 860-page ATP Rule Book of the Can/Am EMTP User Group in Portland,  Oregon, USA.  Source code date is
Total size of LABCOM tables = 16446853 INTEGER words.  31 VARDIM  List Sizes follow:  6002  10K  192K  900  420K  1200  15K
  120K  2250  3800  720  2K  72800  510  800K  800  90  254  800K  100K  3K  15K  192K  120  45K  260K  600  210K  1100  19  200K
--------------------------------------------------+--------------------------------------------------------------------------------
Descriptive interpretation of input data cards.   |  Input data card images are shown below, all 80 columns, character by character
                                                  0         1         2         3         4         5         6         7         8
                                                  012345678901234567890123456789012345678901234567890123456789012345678901234567890
--------------------------------------------------+--------------------------------------------------------------------------------
Comment card.   KOMPAR > 0.                       |C data:Caso0_ReEnergizacao_OTIMIZADA_SemControle.atp
Marker card preceding new EMTP data case.         |BEGIN NEW DATA CASE
Comment card.   KOMPAR > 0.                       |C $DUMMY, XYZ000
Misc. data.     1.000E-06   1.000E+00   0.000E+00 |   1.E-6      1.
Misc. data.  500  1  0  0  1  0  0  1  300  0     |     500       1       0       0       1       0       0       1     300
Statistics data.      1    1    0    0    1    0  |       1       1       0       0       1      -1                               0
Series R-L-C.   5.000E+00  7.500E-02  0.000E+00   |  X0001AX0007A                5.   75.                                         0
Series R-L-C.   5.000E+00  7.500E-02  0.000E+00   |  X0001BX0007B                5.   75.                                         0
Series R-L-C.   5.000E+00  7.500E-02  0.000E+00   |  X0001CX0007C                5.   75.                                         0
Series R-L-C.   2.000E+02  0.000E+00  0.000E+00   |  X0007AX0001A              200.                                               0
Series R-L-C.   2.000E+02  0.000E+00  0.000E+00   |  X0007BX0001B              200.                                               0
Series R-L-C.   2.000E+02  0.000E+00  0.000E+00   |  X0007CX0001C              200.                                               0
Series R-L-C.   1.321E+00  1.401E+00  0.000E+00   |  X0003BXX0008            1.32071401.3                                         0
Series R-L-C.   1.321E+00  1.401E+00  0.000E+00   |  X0003AXX0008            1.32071401.3                                         0
Series R-L-C.   1.321E+00  1.401E+00  0.000E+00   |  X0003CXX0008            1.32071401.3                                         0
Series R-L-C.   3.900E-01  4.138E-01  0.000E+00   |  XX0008                     .39 413.8                                         0
Series R-L-C.   3.000E+01  0.000E+00  0.000E+00   |  XX0009                     30.                                               0
Series R-L-C.   3.000E+02  0.000E+00  0.000E+00   |  X0002AX0010A              300.                                               0
Series R-L-C.   3.000E+02  0.000E+00  0.000E+00   |  X0002BX0010B              300.                                               0
Series R-L-C.   3.000E+02  0.000E+00  0.000E+00   |  X0002CX0010C              300.                                               0
Dynamic $INCLUDE uses fixed RAM cache to delay.   |$INSERT, C:\SimulacaoATP\2\EXT1.pch
J. Marti line, mode  1   parameters begin.        |-1X0010AX0005C                2.  0.00              -2 3
J. Marti line, mode  2   parameters begin.        |-2X0010BX0005A                2.  0.00              -2 3
J. Marti line, mode  3   parameters begin.        |-3X0010CX0005B                2.  0.00              -2 3
TR(1,1 )...  0.671-0.707-0.324                    |  0.67102882 -0.70710678 -0.32400803
TI(1,1 )...  0.000 0.000 0.003                    |  0.00000000  0.00000000  0.00341127
TR(2,1 )...  0.315 0.000 0.889                    |  0.31480489  0.00000000  0.88876566
TI(2,1 )... -0.018 0.000 0.010                    | -0.01839933  0.00000000  0.01048452
TR(3,1 )...  0.671 0.707-0.324                    |  0.67102882  0.70710678 -0.32400803
TI(3,1 )...  0.000 0.000 0.003                    |  0.00000000  0.00000000  0.00341127
Dynamic $INCLUDE uses fixed RAM cache to delay.   |$INSERT, C:\SimulacaoATP\2\OTIM2.pch
J. Marti line, mode  1   parameters begin.        |-1X0004AX0006C                2.  0.00              -2 3
J. Marti line, mode  2   parameters begin.        |-2X0004BX0006A                2.  0.00              -2 3
J. Marti line, mode  3   parameters begin.        |-3X0004CX0006B                2.  0.00              -2 3
TR(1,1 )...  0.671-0.707-0.324                    |  0.67102882 -0.70710678 -0.32400803
TI(1,1 )...  0.000 0.000 0.003                    |  0.00000000  0.00000000  0.00341127
TR(2,1 )...  0.315 0.000 0.889                    |  0.31480489  0.00000000  0.88876566
TI(2,1 )... -0.018 0.000 0.010                    | -0.01839933  0.00000000  0.01048452
TR(3,1 )...  0.671 0.707-0.324                    |  0.67102882  0.70710678 -0.32400803
TI(3,1 )...  0.000 0.000 0.003                    |  0.00000000  0.00000000  0.00341127
Dynamic $INCLUDE uses fixed RAM cache to delay.   |$INSERT, C:\SimulacaoATP\2\OTIM3.pch
J. Marti line, mode  1   parameters begin.        |-1X0005AX0004C                2.  0.00              -2 3
J. Marti line, mode  2   parameters begin.        |-2X0005BX0004A                2.  0.00              -2 3
J. Marti line, mode  3   parameters begin.        |-3X0005CX0004B                2.  0.00              -2 3
TR(1,1 )...  0.671-0.707-0.324                    |  0.67102882 -0.70710678 -0.32400803
TI(1,1 )...  0.000 0.000 0.003                    |  0.00000000  0.00000000  0.00341127
TR(2,1 )...  0.315 0.000 0.889                    |  0.31480489  0.00000000  0.88876566
TI(2,1 )... -0.018 0.000 0.010                    | -0.01839933  0.00000000  0.01048452
TR(3,1 )...  0.671 0.707-0.324                    |  0.67102882  0.70710678 -0.32400803
TI(3,1 )...  0.000 0.000 0.003                    |  0.00000000  0.00000000  0.00341127
Dynamic $INCLUDE uses fixed RAM cache to delay.   |$INSERT, C:\SimulacaoATP\2\EXT4.pch
J. Marti line, mode  1   parameters begin.        |-1X0006AX0003A                2.  0.00              -2 3
J. Marti line, mode  2   parameters begin.        |-2X0006BX0003B                2.  0.00              -2 3
J. Marti line, mode  3   parameters begin.        |-3X0006CX0003C                2.  0.00              -2 3
TR(1,1 )...  0.671-0.707-0.324                    |  0.67102882 -0.70710678 -0.32400803
TI(1,1 )...  0.000 0.000 0.003                    |  0.00000000  0.00000000  0.00341127
TR(2,1 )...  0.315 0.000 0.889                    |  0.31480489  0.00000000  0.88876566
TI(2,1 )... -0.018 0.000 0.010                    | -0.01839933  0.00000000  0.01048452
TR(3,1 )...  0.671 0.707-0.324                    |  0.67102882  0.70710678 -0.32400803
TI(3,1 )...  0.000 0.000 0.003                    |  0.00000000  0.00000000  0.00341127
Blank card ending branches.  IBR, NTOT = 26  27   |BLANK BRANCH
Switch.   5.50E-02  1.00E-03  0.00E+00  3.33E+03  |  X0001BX0002B      .055      .001               3333.STATISTICS               0
Switch.   5.50E-02  1.00E-03  0.00E+00  3.33E+03  |  X0001AX0002A      .055      .001               3333.STATISTICS               0
Switch.   5.50E-02  1.00E-03  0.00E+00  3.33E+03  |  X0001CX0002C      .055      .001               3333.STATISTICS               0
Switch.   1.00E-02  1.00E-03  0.00E+00  0.00E+00  |  X0003CXX0009       .01      .001                    STATISTICS               1
Switch.   7.00E-01  1.00E-03  0.00E+00  0.00E+00  |  X0001BX0002B        .7      .001                    STATISTICS               0
Switch.   7.00E-01  1.00E-03  0.00E+00  0.00E+00  |  X0001AX0002A        .7      .001                    STATISTICS               0
Switch.   7.00E-01  1.00E-03  0.00E+00  0.00E+00  |  X0001CX0002C        .7      .001                    STATISTICS               0
Switch.   0.00E+00  6.98E-01  0.00E+00  0.00E+00  |  X0002AX0010A                .698                                             0
Switch.   0.00E+00  6.98E-01  0.00E+00  0.00E+00  |  X0002BX0010B                .698                                             0
Switch.   0.00E+00  6.98E-01  0.00E+00  0.00E+00  |  X0002CX0010C                .698                                             0
Switch.   7.10E-01  0.00E+00  0.00E+00  0.00E+00  |  X0002AX0010A       .71                                                       0
Switch.   7.10E-01  0.00E+00  0.00E+00  0.00E+00  |  X0002BX0010B       .71                                                       0
Switch.   7.10E-01  0.00E+00  0.00E+00  0.00E+00  |  X0002CX0010C       .71                                                       0
Blank card ending switches.   KSWTCH = 13.        |BLANK SWITCH
Source.   4.29E+05  6.00E+01  0.00E+00 -1.00E+00  |14X0007A  428660.705       60.                                     -1.      100.
Source.   4.29E+05  6.00E+01 -1.20E+02 -1.00E+00  |14X0007B  428660.705       60.     -120.                           -1.      100.
Source.   4.29E+05  6.00E+01 -2.40E+02 -1.00E+00  |14X0007C  428660.705       60.     -240.                           -1.      100.
Blank card ends electric sources.  KCONST = 3     |BLANK SOURCE

     Total network loss  P-loss  by summing injections =   2.432568960122E+08

Card of names for time-step loop output.          |  X0003AX0003BX0003C
Output voltage differences for pairs of A6 names  |-5X0003BX0003CX0003AX0003BX0003CX0003A
Blank card ending requests for output variables.  |BLANK OUTPUT

Column headings for the  7   EMTP output variables follow.  These are divided among the 5 possible classes as follows ....
  First  6     output variables are electric-network voltage differences (upper voltage minus lower voltage);
  Next   1     output variables are branch currents (flowing from the upper node to the lower node);
   Step      Time      X0003A     X0003B     X0003C     X0003B     X0003A     X0003C     X0003C
                                                        X0003C     X0003B     X0003A     XX0009
 ***      Phasor I(0) =  3.5223111E+02                     Switch  "X0001B"  to  "X0002B"  closed in the steady-state.
 ***      Phasor I(0) =  3.8040819E+02                     Switch  "X0001A"  to  "X0002A"  closed in the steady-state.
 ***      Phasor I(0) = -7.3131165E+02                     Switch  "X0001C"  to  "X0002C"  closed in the steady-state.
 ***                    Switch  "X0002A"  to  "X0010A"  closed  after  0.00000000E+00  sec.
 ***                    Switch  "X0002B"  to  "X0010B"  closed  after  0.00000000E+00  sec.
 ***                    Switch  "X0002C"  to  "X0010C"  closed  after  0.00000000E+00  sec.
      0       0.0  330243.312 -339763.29 12233.3168  -351996.6   670006.6   -318010.        0.0
    500     .5E-3   361055.31 -298255.05   -59556.9 -238698.15 659310.365 -420612.21        0.0
   1000     .1E-2  380821.391 -246804.68 -129477.78  -117326.9 627626.074 -510299.17        0.0
   1500     .0015   386278.05 -186552.92 -194769.56 8216.64713 572830.967 -581047.61        0.0
   2000      .002  474410.539 3943.92712 -531257.29 535201.219 470466.612 -.100567E7        0.0
   2500     .0025   436748.79 166547.401 -609319.32 775866.721 270201.389 -.104607E7        0.0
   3000      .003  357561.627 288476.997   -650870. 939347.001 69084.6294 -.100843E7        0.0
   3500     .0035  253170.295 381742.838 -643411.24 .1025154E7 -128572.54 -896581.54        0.0
   4000      .004   141210.92 467953.025 -591166.35 .1059119E7 -326742.11 -732377.27        0.0
   4500     .0045  26885.9137 534833.194 -526227.97 .1061061E7 -507947.28 -553113.89        0.0
   5000      .005  -98587.892 574431.806 -445414.81 .1019847E7  -673019.7 -346826.92        0.0
   5500     .0055  -261282.43 556231.857 -277128.79  833360.65 -817514.28 -15846.365        0.0
   6000      .006  -385871.65 494319.607 -92306.403 586626.009 -880191.26 293565.252        0.0
   6500     .0065   -463142.1 423356.985 61642.1216 361714.863 -886499.08  524784.22        0.0
   7000      .007  -508179.15 348743.585 179508.408 169235.177 -856922.73 687687.555        0.0
   7500     .0075  -525051.39 273401.282 258260.882 15140.3994 -798452.68 783312.276        0.0
   8000      .008   -519687.1 192284.065 314384.451 -122100.39 -711971.17 834071.552        0.0
   8500     .0085  -497120.79 106426.679 357270.751 -250844.07 -603547.47 854391.544        0.0
   9000      .009   -439760.4  27799.496 370384.692  -342585.2  -467559.9 810145.094        0.0
   9500     .0095  -362021.23 -29513.204 349980.738 -379493.94 -332508.02 712001.964        0.0
  10000       .01  -287997.94 -74727.551 323623.959 -398351.51 -213270.39 611621.904        0.0
 ***                                                             Close switch  "X0003C"  to  "XX0009"  after  1.00010000E-02  sec.
  10500     .0105  -311113.58 -207863.45 31270.2979 -239133.75 -103250.13 342383.876 1042.34326
  11000      .011  -248182.16 -256871.71 32068.1812  -288939.9 8689.55728 280250.339 1068.93937
  11500     .0115  -189976.46 -311830.27 34193.9694 -346024.24  121853.81 224170.433 1139.79898
  12000      .012  -138418.18   -372416. 38317.9374 -410733.94 233997.826 176736.115 1277.26458
  12500     .0125  -82984.565 -415560.22 41027.2313 -456587.45 332575.658 124011.796 1367.57438
  13000      .013  -21215.883 -456135.81  42632.112 -498767.93  434919.93 63847.9952  1421.0704
  13500     .0135  3927.04565 -499773.63 44152.4482 -543926.08 503700.677 40225.4026 1471.74827
  14000      .014  -1978.0809 -603023.52 54751.1817  -657774.7 601045.435 56729.2626 1825.03939
  14500     .0145  112818.056 -579595.22 63908.7133 -643503.94 692413.279 -48909.342 2130.29044
  15000      .015  229732.858 -519916.74 67161.5757 -587078.32 749649.598 -162571.28 2238.71919
  15500     .0155  325378.053 -450280.06 62645.2088 -512925.27 775658.116 -262732.84 2088.17363
  16000      .016  412779.871 -366738.37 54424.3254  -421162.7 779518.242 -358355.55 1814.14418
  16500     .0165  493563.028 -262271.61 44377.6774 -306649.29 755834.642 -449185.35 1479.25591
  17000      .017  564498.865 -137004.53  31979.384 -168983.91 701503.391 -532519.48 1065.97947
  17500     .0175  615416.499 1791.10974  17859.369 -16068.259  613625.39 -597557.13 595.312301
  18000      .018  628484.013 144388.975 7276.28134 137112.694 484095.038 -621207.73 242.542711
  18500     .0185  612023.248 280998.843 1645.66493 279353.178 331024.405 -610377.58 54.8554976
  19000      .019  564115.754 394925.581 -5087.8536 400013.435 169190.173 -569203.61 -169.59512
  19500     .0195  489555.747 486714.518 -13365.013 500079.531  2841.2285 -502920.76 -445.50045
  20000       .02   389590.29 553508.099 -22382.811  575890.91 -163917.81  -411973.1  -746.0937
  20500     .0205  271449.486 593778.137 -31295.857 625073.994 -322328.65 -302745.34 -1043.1952
  21000      .021  143309.111 607979.141 -39827.621 647806.762 -464670.03 -183136.73 -1327.5874
  21500     .0215  9383.99826 591861.809 -47661.851  639523.66 -582477.81  -57045.85 -1588.7284
  22000      .022  -126551.34 544408.139 -53110.582 597518.721 -670959.48   73440.76 -1770.3527
  22500     .0225  -248969.78 481610.186 -55357.532 536967.718 -730579.97 193612.252 -1845.2511
  23000      .023  -349054.81 414809.962 -54575.814 469385.776 -763864.77 294478.993 -1819.1938
  23500     .0235  -426839.72 344228.704 -51665.541 395894.245 -771068.42 375174.178 -1722.1847
  24000      .024  -483891.66 268668.032 -47177.093 315845.126 -752559.69 436714.569 -1572.5698
  24500     .0245  -520767.27 188961.789  -41296.64 230258.429 -709729.06 479470.633 -1376.5547
  25000      .025  -537423.21 107991.555 -34323.367 142314.922 -645414.77 503099.847 -1144.1122
  25500     .0255  -535970.02 27539.8206 -26629.347 54169.1681 -563509.84 509340.673 -887.64492
  26000      .026  -519742.65 -52829.862  -17968.48 -34861.382 -466912.79 501774.168 -598.94935
  26500     .0265  -490763.63  -133922.9 -7920.2567 -126002.65 -356840.73 482843.378 -264.00856
  27000      .027  -450742.67 -216119.57 3193.38895 -219312.96  -234623.1 453936.057 106.446298
  27500     .0275    -400449. -297533.86 14608.9895 -312142.85 -102915.14 415057.989 486.966317
  28000      .028  -340256.23  -374868.4 25611.5031 -400479.91 34612.1696 365867.738 853.716769
  28500     .0285   -270523.5 -444282.07 35658.8434 -479940.91 173758.566 306182.346 1188.62811
  29000      .029  -191456.73  -501851.2 44273.7736 -546124.97 310394.468 235730.507 1475.79245
  29500     .0295  -104354.01 -544352.96 51021.3221 -595374.28 439998.948 155375.334 1700.71074
  30000       .03  -11752.416 -569080.15 55709.3524  -624789.5 557327.732 67461.7681 1856.97841
  30500     .0305  84181.9835  -572703.6 58382.3062 -631085.91 656885.585 -25799.677 1946.07687
  31000      .031  181568.712 -552048.15 59162.9927 -611211.14 733616.863 -122405.72 1972.09976
  31500     .0315  277472.237  -505964.5 58121.9522 -564086.45 783436.732 -219350.28 1937.39841
  32000      .032  367663.934 -435981.18    55278.2 -491259.38 803645.111 -312385.73 1842.60667
  32500     .0325  447401.168 -345587.51 50676.9538 -396264.46 792988.677 -396724.21 1689.23179
  33000      .033  512351.511 -239296.75 44401.5025 -283698.25 751648.259 -467950.01 1480.05008
  33500     .0335  558910.481 -122381.12 36569.4078 -158950.53 681291.601 -522341.07 1218.98026
  34000      .034  584210.955 -817.85206  27412.572 -28230.424 585028.807 -556798.38 913.752401
  34500     .0345  586291.393 119105.871 17313.6635 101792.207 467185.523 -568977.73 577.122116
  35000      .035  564375.225 231383.362 6717.14427 224666.218 332991.863 -557658.08 223.904809
  35500     .0355  519149.077 330970.207 -3965.3037 334935.511  188178.87 -523114.38 -132.17679
  36000      .036  452754.931 414185.161 -14371.226 428556.387 38569.7704 -467126.16 -479.04088
  36500     .0365   368523.01 478720.917 -24166.585 502887.502 -110197.91 -392689.59 -805.55285
  37000      .037  270617.129 523479.958 -33045.118 556525.076 -252862.83 -303662.25 -1101.5039
  37500     .0375  163586.686 548294.472 -40744.602 589039.074 -384707.79 -204331.29 -1358.1534
  38000      .038  52020.6507 553677.168 -47039.288 600716.456 -501656.52 -99059.938 -1567.9763
  38500     .0385  -59556.458 540744.703  -51719.22 592463.924 -600301.16 7837.23792  -1723.974
  39000      .039  -166774.78 511135.885 -54589.348 565725.233 -677910.66  112185.43 -1819.6449
  39500     .0395  -265665.66 466739.285 -55495.079 522234.365 -732404.95 210170.584  -1849.836
  40000       .04   -352935.8 409374.385 -54354.097 463728.481 -762310.19 298581.704 -1811.8032
  40500     .0405  -426067.46 340668.162 -51173.366 391841.529 -766735.62 374894.091 -1705.7789
  41000      .041  -483225.73 262164.012  -46054.18 308218.192 -745389.75 437171.554 -1535.1393
  41500     .0415  -523142.33 175501.424 -39190.303 214691.727 -698643.76 483952.029 -1306.3434
  42000      .042  -545078.31 82541.9887  -30851.95 113393.939  -627620.3  514226.36 -1028.3983
  % % % % % %   Suspended simulation;  plot data space exhausted;  SPY SPACE is required.   LIMBUF =  340000.
  % % % % % %   Suspended simulation;  plot data space exhausted;  SPY SPACE is required.   LIMBUF =  340000.
  +++  Time-sharing disabled.   Send  user-keyed interrupt to silence alarm.
