   ---   55   cards of disk file read into card cache cells  1   onward.
 <===> Done with  "/"-card sorting by data class.    Remember that the source file appears different from interpreted input data.
Alternative Transients Program (ATP),  F77 GNU Linux or DOS.  All rights reserved by Can/Am user group of Portland, Oregon, USA.
 Date (dd-mth-yy) and time of day (hh.mm.ss) = 11-Nov-18  11.00.00    Name of disk plot file, if any, is
Consult the 860-page ATP Rule Book of the Can/Am EMTP User Group in Portland,  Oregon, USA.  Source code date is
Total size of LABCOM tables = 16446853 INTEGER words.  31 VARDIM  List Sizes follow:  6002  10K  192K  900  420K  1200  15K
  120K  2250  3800  720  2K  72800  510  800K  800  90  254  800K  100K  3K  15K  192K  120  45K  260K  600  210K  1100  19  200K
--------------------------------------------------+--------------------------------------------------------------------------------
Descriptive interpretation of input data cards.   |  Input data card images are shown below, all 80 columns, character by character
                                                  0         1         2         3         4         5         6         7         8
                                                  012345678901234567890123456789012345678901234567890123456789012345678901234567890
--------------------------------------------------+--------------------------------------------------------------------------------
Comment card.   KOMPAR > 0.                       |C data:Caso0_ReEnergizacao_OTIMIZADA_SemControle.atp
Marker card preceding new EMTP data case.         |BEGIN NEW DATA CASE
Comment card.   KOMPAR > 0.                       |C $DUMMY, XYZ000
Misc. data.     1.000E-06   1.000E+00   0.000E+00 |   1.E-6      1.
Misc. data.  500  1  0  0  1  0  0  1  300  0     |     500       1       0       0       1       0       0       1     300
Statistics data.      1    1    0    0    1    0  |       1       1       0       0       1      -1                               0
Series R-L-C.   5.000E+00  7.500E-02  0.000E+00   |  X0001AX0007A                5.   75.                                         0
Series R-L-C.   5.000E+00  7.500E-02  0.000E+00   |  X0001BX0007B                5.   75.                                         0
Series R-L-C.   5.000E+00  7.500E-02  0.000E+00   |  X0001CX0007C                5.   75.                                         0
Series R-L-C.   2.000E+02  0.000E+00  0.000E+00   |  X0007AX0001A              200.                                               0
Series R-L-C.   2.000E+02  0.000E+00  0.000E+00   |  X0007BX0001B              200.                                               0
Series R-L-C.   2.000E+02  0.000E+00  0.000E+00   |  X0007CX0001C              200.                                               0
Series R-L-C.   1.321E+00  1.401E+00  0.000E+00   |  X0003BXX0008            1.32071401.3                                         0
Series R-L-C.   1.321E+00  1.401E+00  0.000E+00   |  X0003AXX0008            1.32071401.3                                         0
Series R-L-C.   1.321E+00  1.401E+00  0.000E+00   |  X0003CXX0008            1.32071401.3                                         0
Series R-L-C.   3.900E-01  4.138E-01  0.000E+00   |  XX0008                     .39 413.8                                         0
Series R-L-C.   3.000E+01  0.000E+00  0.000E+00   |  XX0009                     30.                                               0
Series R-L-C.   1.000E+03  0.000E+00  0.000E+00   |  X0002AX0010A              1.E3                                               0
Series R-L-C.   1.000E+03  0.000E+00  0.000E+00   |  X0002BX0010B              1.E3                                               0
Series R-L-C.   1.000E+03  0.000E+00  0.000E+00   |  X0002CX0010C              1.E3                                               0
Dynamic $INCLUDE uses fixed RAM cache to delay.   |$INSERT, C:\SimulacaoATP\1\EXT1.pch
J. Marti line, mode  1   parameters begin.        |-1X0010AX0005C                2.  0.00              -2 3
J. Marti line, mode  2   parameters begin.        |-2X0010BX0005A                2.  0.00              -2 3
J. Marti line, mode  3   parameters begin.        |-3X0010CX0005B                2.  0.00              -2 3
TR(1,1 )...  0.671-0.707-0.324                    |  0.67102882 -0.70710678 -0.32400803
TI(1,1 )...  0.000 0.000 0.003                    |  0.00000000  0.00000000  0.00341127
TR(2,1 )...  0.315 0.000 0.889                    |  0.31480489  0.00000000  0.88876566
TI(2,1 )... -0.018 0.000 0.010                    | -0.01839933  0.00000000  0.01048452
TR(3,1 )...  0.671 0.707-0.324                    |  0.67102882  0.70710678 -0.32400803
TI(3,1 )...  0.000 0.000 0.003                    |  0.00000000  0.00000000  0.00341127
Dynamic $INCLUDE uses fixed RAM cache to delay.   |$INSERT, C:\SimulacaoATP\1\OTIM2.pch
J. Marti line, mode  1   parameters begin.        |-1X0004AX0006C                2.  0.00              -2 3
J. Marti line, mode  2   parameters begin.        |-2X0004BX0006A                2.  0.00              -2 3
J. Marti line, mode  3   parameters begin.        |-3X0004CX0006B                2.  0.00              -2 3
TR(1,1 )...  0.671-0.707-0.324                    |  0.67102882 -0.70710678 -0.32400803
TI(1,1 )...  0.000 0.000 0.003                    |  0.00000000  0.00000000  0.00341127
TR(2,1 )...  0.315 0.000 0.889                    |  0.31480489  0.00000000  0.88876566
TI(2,1 )... -0.018 0.000 0.010                    | -0.01839933  0.00000000  0.01048452
TR(3,1 )...  0.671 0.707-0.324                    |  0.67102882  0.70710678 -0.32400803
TI(3,1 )...  0.000 0.000 0.003                    |  0.00000000  0.00000000  0.00341127
Dynamic $INCLUDE uses fixed RAM cache to delay.   |$INSERT, C:\SimulacaoATP\1\OTIM3.pch
J. Marti line, mode  1   parameters begin.        |-1X0005AX0004C                2.  0.00              -2 3
J. Marti line, mode  2   parameters begin.        |-2X0005BX0004A                2.  0.00              -2 3
J. Marti line, mode  3   parameters begin.        |-3X0005CX0004B                2.  0.00              -2 3
TR(1,1 )...  0.671-0.707-0.324                    |  0.67102882 -0.70710678 -0.32400803
TI(1,1 )...  0.000 0.000 0.003                    |  0.00000000  0.00000000  0.00341127
TR(2,1 )...  0.315 0.000 0.889                    |  0.31480489  0.00000000  0.88876566
TI(2,1 )... -0.018 0.000 0.010                    | -0.01839933  0.00000000  0.01048452
TR(3,1 )...  0.671 0.707-0.324                    |  0.67102882  0.70710678 -0.32400803
TI(3,1 )...  0.000 0.000 0.003                    |  0.00000000  0.00000000  0.00341127
Dynamic $INCLUDE uses fixed RAM cache to delay.   |$INSERT, C:\SimulacaoATP\1\EXT4.pch
J. Marti line, mode  1   parameters begin.        |-1X0006AX0003A                2.  0.00              -2 3
J. Marti line, mode  2   parameters begin.        |-2X0006BX0003B                2.  0.00              -2 3
J. Marti line, mode  3   parameters begin.        |-3X0006CX0003C                2.  0.00              -2 3
TR(1,1 )...  0.671-0.707-0.324                    |  0.67102882 -0.70710678 -0.32400803
TI(1,1 )...  0.000 0.000 0.003                    |  0.00000000  0.00000000  0.00341127
TR(2,1 )...  0.315 0.000 0.889                    |  0.31480489  0.00000000  0.88876566
TI(2,1 )... -0.018 0.000 0.010                    | -0.01839933  0.00000000  0.01048452
TR(3,1 )...  0.671 0.707-0.324                    |  0.67102882  0.70710678 -0.32400803
TI(3,1 )...  0.000 0.000 0.003                    |  0.00000000  0.00000000  0.00341127
Blank card ending branches.  IBR, NTOT = 26  27   |BLANK BRANCH
Switch.   5.50E-02  1.00E-03  0.00E+00  3.33E+03  |  X0001BX0002B      .055      .001               3333.STATISTICS               0
Switch.   5.50E-02  1.00E-03  0.00E+00  3.33E+03  |  X0001AX0002A      .055      .001               3333.STATISTICS               0
Switch.   5.50E-02  1.00E-03  0.00E+00  3.33E+03  |  X0001CX0002C      .055      .001               3333.STATISTICS               0
Switch.   1.00E-02  1.00E-03  0.00E+00  0.00E+00  |  X0003CXX0009       .01      .001                    STATISTICS               1
Switch.   7.00E-01  1.00E-03  0.00E+00  0.00E+00  |  X0001BX0002B        .7      .001                    STATISTICS               0
Switch.   7.00E-01  1.00E-03  0.00E+00  0.00E+00  |  X0001AX0002A        .7      .001                    STATISTICS               0
Switch.   7.00E-01  1.00E-03  0.00E+00  0.00E+00  |  X0001CX0002C        .7      .001                    STATISTICS               0
Switch.   0.00E+00  6.98E-01  0.00E+00  0.00E+00  |  X0002AX0010A                .698                                             0
Switch.   0.00E+00  6.98E-01  0.00E+00  0.00E+00  |  X0002BX0010B                .698                                             0
Switch.   0.00E+00  6.98E-01  0.00E+00  0.00E+00  |  X0002CX0010C                .698                                             0
Switch.   7.10E-01  0.00E+00  0.00E+00  0.00E+00  |  X0002AX0010A       .71                                                       0
Switch.   7.10E-01  0.00E+00  0.00E+00  0.00E+00  |  X0002BX0010B       .71                                                       0
Switch.   7.10E-01  0.00E+00  0.00E+00  0.00E+00  |  X0002CX0010C       .71                                                       0
Blank card ending switches.   KSWTCH = 13.        |BLANK SWITCH
Source.   4.29E+05  6.00E+01  0.00E+00 -1.00E+00  |14X0007A  428660.705       60.                                     -1.      100.
Source.   4.29E+05  6.00E+01 -1.20E+02 -1.00E+00  |14X0007B  428660.705       60.     -120.                           -1.      100.
Source.   4.29E+05  6.00E+01 -2.40E+02 -1.00E+00  |14X0007C  428660.705       60.     -240.                           -1.      100.
Blank card ends electric sources.  KCONST = 3     |BLANK SOURCE

     Total network loss  P-loss  by summing injections =   2.196225322124E+08

Card of names for time-step loop output.          |  X0003AX0003BX0003C
Output voltage differences for pairs of A6 names  |-5X0003BX0003CX0003AX0003BX0003CX0003A
Blank card ending requests for output variables.  |BLANK OUTPUT

Column headings for the  7   EMTP output variables follow.  These are divided among the 5 possible classes as follows ....
  First  6     output variables are electric-network voltage differences (upper voltage minus lower voltage);
  Next   1     output variables are branch currents (flowing from the upper node to the lower node);
   Step      Time      X0003A     X0003B     X0003C     X0003B     X0003A     X0003C     X0003C
                                                        X0003C     X0003B     X0003A     XX0009
 ***      Phasor I(0) = -2.1490959E+01                     Switch  "X0001B"  to  "X0002B"  closed in the steady-state.
 ***      Phasor I(0) =  3.4251471E+02                     Switch  "X0001A"  to  "X0002A"  closed in the steady-state.
 ***      Phasor I(0) = -3.1818100E+02                     Switch  "X0001C"  to  "X0002C"  closed in the steady-state.
 ***                    Switch  "X0002A"  to  "X0010A"  closed  after  0.00000000E+00  sec.
 ***                    Switch  "X0002B"  to  "X0010B"  closed  after  0.00000000E+00  sec.
 ***                    Switch  "X0002C"  to  "X0010C"  closed  after  0.00000000E+00  sec.
      0       0.0  88291.1458 -203167.74 111332.882 -314500.63 291458.889 23041.7366        0.0
    500     .5E-3  120497.472  -201396.8 78446.7779 -279843.57 321894.269 -42050.695        0.0
   1000     .1E-2  148962.441 -192781.86 42305.7797 -235087.64 341744.303 -106656.66        0.0
   1500     .0015  171390.764 -177594.77 4763.93607 -182358.71 348985.536 -166626.83        0.0
   2000      .002  554537.828 -158230.68 -455354.43 297123.751 712768.507 -.100989E7        0.0
   2500     .0025  579581.075 -24816.508 -588499.82 563683.312 604397.583 -.116808E7        0.0
   3000      .003  534426.702 106000.633 -683641.87 789642.504 428426.069 -.121807E7        0.0
   3500     .0035  452491.714 222741.475 -721313.48 944054.956 229750.239 -.117381E7        0.0
   4000      .004  348665.933 349773.787 -693329.78 .1043104E7 -1107.8536   -.1042E7        0.0
   4500     .0045  227397.408 468438.163 -647949.91 .1116388E7 -241040.75 -875347.32        0.0
   5000      .005  78410.8835 557361.689 -577522.12 .1134884E7 -478950.81 -655933.01        0.0
   5500     .0055  -197580.85 616330.497 -370388.86 986719.353 -813911.35   -172808.        0.0
   6000      .006  -437896.95 609206.004 -140602.56 749808.567  -.10471E7 297294.391        0.0
   6500     .0065  -579353.03 563746.315 62774.7353  500971.58  -.11431E7 642127.769        0.0
   7000      .007   -656328.3 489488.913  230409.58 259079.333 -.114582E7 886737.875        0.0
   7500     .0075  -690744.53 395234.006  344328.36 50905.6459 -.108598E7 .1035073E7        0.0
   8000      .008  -686834.52 278334.656 419908.293 -141573.64 -965169.17 .1106743E7        0.0
   8500     .0085  -648436.03 144591.739  471462.42 -326870.68 -793027.77 .1119898E7        0.0
   9000      .009  -544717.15 12679.6661 466712.462  -454032.8 -557396.82  .101143E7        0.0
   9500     .0095   -389386.6 -99611.609 410648.667 -510260.28   -289775. 800035.272        0.0
  10000       .01  -244295.54 -182200.86 345796.439  -527997.3 -62094.677 590091.975        0.0
 ***                                                             Close switch  "X0003C"  to  "XX0009"  after  1.00010000E-02  sec.
  10500     .0105  -211075.09 -323296.92 29703.2662 -353000.18 112221.827 240778.356 990.108874
  11000      .011  -107190.99 -357934.98 26915.1625 -384850.14  250743.99 134106.154 897.172082
  11500     .0115  -30739.698 -386554.45 26262.3263 -412816.78 355814.755 57002.0243 875.410878
  12000      .012  18080.1263 -410314.63 28700.1917 -439014.82 428394.758 10620.0653 956.673055
  12500     .0125  48912.4064 -412554.55 31098.8815 -443653.43 461466.959 -17813.525 1036.62938
  13000      .013  59325.5703   -413934. 34214.9206 -448148.92 473259.568  -25110.65 1140.49735
  13500     .0135  17843.5379 -427656.48 38564.8166  -466221.3  445500.02 20721.2787 1285.49389
  14000      .014  -46446.807 -515948.95 52525.5024 -568474.45 469502.144 98972.3094 1750.85008
  14500     .0145  32575.3805 -483936.62 63845.8157 -547782.43 516511.999 31270.4353 2128.19386
  15000      .015  123540.581 -435406.71 67296.0785 -502702.79 558947.291 -56244.503 2243.20262
  15500     .0155   206439.56 -393239.01 61683.8254 -454922.84 599678.571 -144755.73 2056.12751
  16000      .016  297824.815 -346541.24 51960.1658 -398501.41 644366.058 -245864.65 1732.00553
  16500     .0165   399797.26 -282441.46 40430.7317 -322872.19 682238.716 -359366.53 1347.69106
  17000      .017  506795.043 -194263.86 27011.9218 -221275.79 701058.907 -479783.12 900.397394
  17500     .0175   600155.83 -81994.504 12817.5958   -94812.1 682150.334 -587338.23 427.253192
  18000      .018  653337.817 49220.7481 3262.89943 45957.8487 604117.069 -650074.92 108.763314
  18500     .0185  669909.014 189972.403 -1044.4411 191016.844 479936.611 -670953.45 -34.814704
  19000      .019  644041.487 321322.642 -7000.1284 328322.771 322718.844 -651041.62 -233.33761
  19500     .0195  578166.361 440757.213 -15019.713 455776.926 137409.149 -593186.07 -500.65709
  20000       .02   472739.11 540869.947 -24113.074 564983.021 -68130.836 -496852.18 -803.76914
  20500     .0205  335899.043 614947.701 -33241.696 648189.397 -279048.66 -369140.74 -1108.0565
  21000      .021  179172.997 657518.693 -41945.384 699464.077  -478345.7 -221118.38 -1398.1795
  21500     .0215  12231.7127 658998.928 -49723.801  708722.73 -646767.22 -61955.514   -1657.46
  22000      .022  -154891.77 616389.442  -54750.01 671139.453 -771281.21 100141.757 -1825.0003
  22500     .0225   -301178.8 546971.654 -56346.564 603318.218 -848150.46 244832.238 -1878.2188
  23000      .023  -415138.61  463756.15 -54962.336 518718.486 -878894.76 360176.277 -1832.0779
  23500     .0235  -496131.47 369219.419 -51728.143 420947.561 -865350.88 444403.323 -1724.2714
  24000      .024  -546026.81  265734.23 -47260.166 312994.396 -811761.04 498766.646 -1575.3389
  24500     .0245  -566935.47 158635.427 -41692.458 200327.886  -725570.9 525243.016 -1389.7486
  25000      .025  -561887.54 55487.4414 -35203.603 90691.0442 -617374.98 526683.938 -1173.4534
  25500     .0255  -537050.37 -38333.515 -27986.266 -10347.249 -498716.86 509064.106 -932.87554
  26000      .026  -499581.07 -121511.14 -19596.208 -101914.94 -378069.93 479984.867 -653.20692
  26500     .0265   -454408.2 -194969.65 -9528.5285 -185441.12 -259438.55 444879.675 -317.61762
  27000      .027  -405156.11 -260805.95 1826.45784 -262632.41 -144350.16 406982.569  60.881928
  27500     .0275  -353415.99 -319989.64 13589.4035 -333579.05 -33426.347 367005.394 452.980116
  28000      .028  -299272.67 -372853.62 24948.2292 -397801.85 73580.9481 324220.904 831.607639
  28500     .0285  -241657.67 -419523.07 35294.4935 -454817.57 177865.406 276952.162 1176.48312
  29000      .029  -178434.05 -459768.81  44116.193 -503885.01 281334.768  222550.24 1470.53977
  29500     .0295  -108207.88 -493086.21 50982.0767 -544068.29 384878.327 159189.962 1699.40256
  30000       .03  -30885.949 -517901.42 55740.0418 -573641.46 487015.471  86625.991 1858.00139
  30500     .0305  53655.3625 -530277.17 58475.7886 -588752.96 583932.531 4820.42611 1949.19295
  31000      .031  145087.413 -525080.28 59325.0861 -584405.37 670167.694 -85762.327 1977.50287
  31500     .0315  241013.751 -498395.51 58341.5045 -556737.02 739409.263 -182672.25 1944.71682
  32000      .032  336730.006 -448587.86 55516.9159 -504104.77 785317.863 -281213.09 1850.56386
  32500     .0325   426170.43  -375964.6 50877.6055 -426842.21 802135.033 -375292.82 1695.92018
  33000      .033  503131.896 -282306.61 44503.8246 -326810.43 785438.506 -458628.07 1483.46082
  33500     .0335  561944.186 -171087.29  36532.093 -207619.38 733031.474 -525412.09 1217.73643
  34000      .034  597818.849 -47708.534 27237.1306 -74945.665 645527.383 -570581.72 907.904354
  34500     .0345  607299.017 80877.2002 17051.8596 63825.3407 526421.817 -590247.16 568.395319
  35000      .035  588728.621 206959.989 6453.87102 200506.118 381768.633 -582274.75 215.129034
  35500     .0355   542619.36 323095.889 -4140.2107   327236.1 219523.471 -546759.57 -138.00702
  36000      .036  471622.012  422901.15 -14386.679 437287.829 48720.8623 -486008.69 -479.55597
  36500     .0365  380125.096 501471.647 -23984.033  525455.68 -121346.55 -404109.13 -799.46775
  37000      .037  273669.412 555612.939 -32663.185 588276.124 -281943.53  -306332.6 -1088.7728
  37500     .0375  158234.125 583874.764 -40195.036   624069.8 -425640.64 -198429.16 -1339.8345
  38000      .038  39673.4539 586487.211 -46374.582 632861.793 -546813.76 -86048.036 -1545.8194
  38500     .0385  -76536.354 565303.828 -50996.826 616300.654 -641840.18 25539.5278 -1699.8942
  39000      .039   -185495.1 523553.367 -53859.156 577412.523 -709048.46 131635.941 -1795.3052
  39500     .0395  -283190.59 465253.766  -54793.48 520047.246 -748444.36 228397.112 -1826.4493
  40000       .04  -366761.32 394516.718 -53703.522  448220.24 -761278.04   313057.8 -1790.1174
  40500     .0405  -434490.47 315056.962 -50584.501 365641.464 -749547.43  383905.97   -1686.15
  41000      .041  -485541.39 229989.311 -45528.723 275518.034  -715530.7 440012.669 -1517.6241
  41500     .0415   -519659.6 141786.733 -38722.582 180509.315 -661446.33 480937.014 -1290.7527
  42000      .042  -536980.01   52306.79 -30428.483 82735.2725  -589286.8  506551.53 -1014.2828
  % % % % % %   Suspended simulation;  plot data space exhausted;  SPY SPACE is required.   LIMBUF =  340000.
  % % % % % %   Suspended simulation;  plot data space exhausted;  SPY SPACE is required.   LIMBUF =  340000.
  +++  Time-sharing disabled.   Send  user-keyed interrupt to silence alarm.
