   ---   55   cards of disk file read into card cache cells  1   onward.
 <===> Done with  "/"-card sorting by data class.    Remember that the source file appears different from interpreted input data.
Alternative Transients Program (ATP),  F77 GNU Linux or DOS.  All rights reserved by Can/Am user group of Portland, Oregon, USA.
 Date (dd-mth-yy) and time of day (hh.mm.ss) = 11-Nov-18  11.00.00    Name of disk plot file, if any, is
Consult the 860-page ATP Rule Book of the Can/Am EMTP User Group in Portland,  Oregon, USA.  Source code date is
Total size of LABCOM tables = 16446853 INTEGER words.  31 VARDIM  List Sizes follow:  6002  10K  192K  900  420K  1200  15K
  120K  2250  3800  720  2K  72800  510  800K  800  90  254  800K  100K  3K  15K  192K  120  45K  260K  600  210K  1100  19  200K
--------------------------------------------------+--------------------------------------------------------------------------------
Descriptive interpretation of input data cards.   |  Input data card images are shown below, all 80 columns, character by character
                                                  0         1         2         3         4         5         6         7         8
                                                  012345678901234567890123456789012345678901234567890123456789012345678901234567890
--------------------------------------------------+--------------------------------------------------------------------------------
Comment card.   KOMPAR > 0.                       |C data:Caso0_ReEnergizacao_OTIMIZADA_SemControle.atp
Marker card preceding new EMTP data case.         |BEGIN NEW DATA CASE
Comment card.   KOMPAR > 0.                       |C $DUMMY, XYZ000
Misc. data.     1.000E-06   1.000E+00   0.000E+00 |   1.E-6      1.
Misc. data.  500  1  0  0  1  0  0  1  300  0     |     500       1       0       0       1       0       0       1     300
Statistics data.      1    1    0    0    1    0  |       1       1       0       0       1      -1                               0
Series R-L-C.   5.000E+00  7.500E-02  0.000E+00   |  X0001AX0007A                5.   75.                                         0
Series R-L-C.   5.000E+00  7.500E-02  0.000E+00   |  X0001BX0007B                5.   75.                                         0
Series R-L-C.   5.000E+00  7.500E-02  0.000E+00   |  X0001CX0007C                5.   75.                                         0
Series R-L-C.   2.000E+02  0.000E+00  0.000E+00   |  X0007AX0001A              200.                                               0
Series R-L-C.   2.000E+02  0.000E+00  0.000E+00   |  X0007BX0001B              200.                                               0
Series R-L-C.   2.000E+02  0.000E+00  0.000E+00   |  X0007CX0001C              200.                                               0
Series R-L-C.   1.321E+00  1.401E+00  0.000E+00   |  X0003BXX0008            1.32071401.3                                         0
Series R-L-C.   1.321E+00  1.401E+00  0.000E+00   |  X0003AXX0008            1.32071401.3                                         0
Series R-L-C.   1.321E+00  1.401E+00  0.000E+00   |  X0003CXX0008            1.32071401.3                                         0
Series R-L-C.   3.900E-01  4.138E-01  0.000E+00   |  XX0008                     .39 413.8                                         0
Series R-L-C.   3.000E+01  0.000E+00  0.000E+00   |  XX0009                     30.                                               0
Series R-L-C.   6.000E+02  0.000E+00  0.000E+00   |  X0002AX0010A              600.                                               0
Series R-L-C.   6.000E+02  0.000E+00  0.000E+00   |  X0002BX0010B              600.                                               0
Series R-L-C.   6.000E+02  0.000E+00  0.000E+00   |  X0002CX0010C              600.                                               0
Dynamic $INCLUDE uses fixed RAM cache to delay.   |$INSERT, C:\SimulacaoATP\1\EXT1.pch
J. Marti line, mode  1   parameters begin.        |-1X0010AX0005C                2.  0.00              -2 3
J. Marti line, mode  2   parameters begin.        |-2X0010BX0005A                2.  0.00              -2 3
J. Marti line, mode  3   parameters begin.        |-3X0010CX0005B                2.  0.00              -2 3
TR(1,1 )...  0.671-0.707-0.324                    |  0.67102882 -0.70710678 -0.32400803
TI(1,1 )...  0.000 0.000 0.003                    |  0.00000000  0.00000000  0.00341127
TR(2,1 )...  0.315 0.000 0.889                    |  0.31480489  0.00000000  0.88876566
TI(2,1 )... -0.018 0.000 0.010                    | -0.01839933  0.00000000  0.01048452
TR(3,1 )...  0.671 0.707-0.324                    |  0.67102882  0.70710678 -0.32400803
TI(3,1 )...  0.000 0.000 0.003                    |  0.00000000  0.00000000  0.00341127
Dynamic $INCLUDE uses fixed RAM cache to delay.   |$INSERT, C:\SimulacaoATP\1\OTIM2.pch
J. Marti line, mode  1   parameters begin.        |-1X0004AX0006C                2.  0.00              -2 3
J. Marti line, mode  2   parameters begin.        |-2X0004BX0006A                2.  0.00              -2 3
J. Marti line, mode  3   parameters begin.        |-3X0004CX0006B                2.  0.00              -2 3
TR(1,1 )...  0.671-0.707-0.324                    |  0.67102882 -0.70710678 -0.32400803
TI(1,1 )...  0.000 0.000 0.003                    |  0.00000000  0.00000000  0.00341127
TR(2,1 )...  0.315 0.000 0.889                    |  0.31480489  0.00000000  0.88876566
TI(2,1 )... -0.018 0.000 0.010                    | -0.01839933  0.00000000  0.01048452
TR(3,1 )...  0.671 0.707-0.324                    |  0.67102882  0.70710678 -0.32400803
TI(3,1 )...  0.000 0.000 0.003                    |  0.00000000  0.00000000  0.00341127
Dynamic $INCLUDE uses fixed RAM cache to delay.   |$INSERT, C:\SimulacaoATP\1\OTIM3.pch
J. Marti line, mode  1   parameters begin.        |-1X0005AX0004C                2.  0.00              -2 3
J. Marti line, mode  2   parameters begin.        |-2X0005BX0004A                2.  0.00              -2 3
J. Marti line, mode  3   parameters begin.        |-3X0005CX0004B                2.  0.00              -2 3
TR(1,1 )...  0.671-0.707-0.324                    |  0.67102882 -0.70710678 -0.32400803
TI(1,1 )...  0.000 0.000 0.003                    |  0.00000000  0.00000000  0.00341127
TR(2,1 )...  0.315 0.000 0.889                    |  0.31480489  0.00000000  0.88876566
TI(2,1 )... -0.018 0.000 0.010                    | -0.01839933  0.00000000  0.01048452
TR(3,1 )...  0.671 0.707-0.324                    |  0.67102882  0.70710678 -0.32400803
TI(3,1 )...  0.000 0.000 0.003                    |  0.00000000  0.00000000  0.00341127
Dynamic $INCLUDE uses fixed RAM cache to delay.   |$INSERT, C:\SimulacaoATP\1\EXT4.pch
J. Marti line, mode  1   parameters begin.        |-1X0006AX0003A                2.  0.00              -2 3
J. Marti line, mode  2   parameters begin.        |-2X0006BX0003B                2.  0.00              -2 3
J. Marti line, mode  3   parameters begin.        |-3X0006CX0003C                2.  0.00              -2 3
TR(1,1 )...  0.671-0.707-0.324                    |  0.67102882 -0.70710678 -0.32400803
TI(1,1 )...  0.000 0.000 0.003                    |  0.00000000  0.00000000  0.00341127
TR(2,1 )...  0.315 0.000 0.889                    |  0.31480489  0.00000000  0.88876566
TI(2,1 )... -0.018 0.000 0.010                    | -0.01839933  0.00000000  0.01048452
TR(3,1 )...  0.671 0.707-0.324                    |  0.67102882  0.70710678 -0.32400803
TI(3,1 )...  0.000 0.000 0.003                    |  0.00000000  0.00000000  0.00341127
Blank card ending branches.  IBR, NTOT = 26  27   |BLANK BRANCH
Switch.   5.50E-02  1.00E-03  0.00E+00  3.33E+03  |  X0001BX0002B      .055      .001               3333.STATISTICS               0
Switch.   5.50E-02  1.00E-03  0.00E+00  3.33E+03  |  X0001AX0002A      .055      .001               3333.STATISTICS               0
Switch.   5.50E-02  1.00E-03  0.00E+00  3.33E+03  |  X0001CX0002C      .055      .001               3333.STATISTICS               0
Switch.   1.00E-02  1.00E-03  0.00E+00  0.00E+00  |  X0003CXX0009       .01      .001                    STATISTICS               1
Switch.   7.00E-01  1.00E-03  0.00E+00  0.00E+00  |  X0001BX0002B        .7      .001                    STATISTICS               0
Switch.   7.00E-01  1.00E-03  0.00E+00  0.00E+00  |  X0001AX0002A        .7      .001                    STATISTICS               0
Switch.   7.00E-01  1.00E-03  0.00E+00  0.00E+00  |  X0001CX0002C        .7      .001                    STATISTICS               0
Switch.   0.00E+00  6.98E-01  0.00E+00  0.00E+00  |  X0002AX0010A                .698                                             0
Switch.   0.00E+00  6.98E-01  0.00E+00  0.00E+00  |  X0002BX0010B                .698                                             0
Switch.   0.00E+00  6.98E-01  0.00E+00  0.00E+00  |  X0002CX0010C                .698                                             0
Switch.   7.10E-01  0.00E+00  0.00E+00  0.00E+00  |  X0002AX0010A       .71                                                       0
Switch.   7.10E-01  0.00E+00  0.00E+00  0.00E+00  |  X0002BX0010B       .71                                                       0
Switch.   7.10E-01  0.00E+00  0.00E+00  0.00E+00  |  X0002CX0010C       .71                                                       0
Blank card ending switches.   KSWTCH = 13.        |BLANK SWITCH
Source.   4.29E+05  6.00E+01  0.00E+00 -1.00E+00  |14X0007A  428660.705       60.                                     -1.      100.
Source.   4.29E+05  6.00E+01 -1.20E+02 -1.00E+00  |14X0007B  428660.705       60.     -120.                           -1.      100.
Source.   4.29E+05  6.00E+01 -2.40E+02 -1.00E+00  |14X0007C  428660.705       60.     -240.                           -1.      100.
Blank card ends electric sources.  KCONST = 3     |BLANK SOURCE

     Total network loss  P-loss  by summing injections =   2.698916515412E+08

Card of names for time-step loop output.          |  X0003AX0003BX0003C
Output voltage differences for pairs of A6 names  |-5X0003BX0003CX0003AX0003BX0003CX0003A
Blank card ending requests for output variables.  |BLANK OUTPUT

Column headings for the  7   EMTP output variables follow.  These are divided among the 5 possible classes as follows ....
  First  6     output variables are electric-network voltage differences (upper voltage minus lower voltage);
  Next   1     output variables are branch currents (flowing from the upper node to the lower node);
   Step      Time      X0003A     X0003B     X0003C     X0003B     X0003A     X0003C     X0003C
                                                        X0003C     X0003B     X0003A     XX0009
 ***      Phasor I(0) =  9.4024776E+01                     Switch  "X0001B"  to  "X0002B"  closed in the steady-state.
 ***      Phasor I(0) =  4.2139242E+02                     Switch  "X0001A"  to  "X0002A"  closed in the steady-state.
 ***      Phasor I(0) = -5.1184585E+02                     Switch  "X0001C"  to  "X0002C"  closed in the steady-state.
 ***                    Switch  "X0002A"  to  "X0010A"  closed  after  0.00000000E+00  sec.
 ***                    Switch  "X0002B"  to  "X0010B"  closed  after  0.00000000E+00  sec.
 ***                    Switch  "X0002C"  to  "X0010C"  closed  after  0.00000000E+00  sec.
      0       0.0  182705.485  -286097.2 101617.741 -387714.94 468802.687 -81087.745        0.0
    500     .5E-3  220766.076 -271242.05 49940.5209 -321182.57 492008.124 -170825.55        0.0
   1000     .1E-2  252023.303 -247231.75 -4000.6558  -243231.1 499255.056 -256023.96        0.0
   1500     .0015  273426.058 -214669.84  -57700.55 -156969.29 488095.897 -331126.61        0.0
   2000      .002  539161.518 -96542.766 -508924.96 412382.196 635704.284 -.104809E7        0.0
   2500     .0025  538693.488 64358.2767 -625568.32 689926.597 474335.211 -.116426E7        0.0
   3000      .003  476233.135 198839.299 -701570.87 900410.169 277393.836  -.11778E7        0.0
   3500     .0035  379460.039 308982.663 -718806.22 .1027789E7 70477.3764 -.109827E7        0.0
   4000      .004  267045.517 421859.361 -675436.27 .1097296E7 -154813.84 -942481.79        0.0
   4500     .0045  144233.683 520132.701 -617148.27 .1137281E7 -375899.02 -761381.96        0.0
   5000      .005  -524.39606 587655.174 -537708.03 .1125363E7 -588179.57 -537183.64        0.0
   5500     .0055  -236460.35 605058.992 -332371.27 937430.267 -841519.34 -95910.929        0.0
   6000      .006  -430472.43 562470.157 -105914.89 668385.042 -992942.59 324557.546        0.0
   6500     .0065  -543953.59 496566.481  85957.833 410608.648 -.104052E7 629911.422        0.0
   7000      .007  -604992.06 415651.652 235488.974 180162.678 -.102064E7 840481.034        0.0
   7500     .0075  -627937.35 326076.218 331850.262 -5774.0442 -954013.57 959787.609        0.0
   8000      .008  -618994.72 222963.249 394150.532 -171187.28 -841957.97 .1013145E7        0.0
   8500     .0085  -583587.52 109649.627 436347.559 -326697.93 -693237.15 .1019935E7        0.0
   9000      .009  -494314.36  3161.0688 431369.434 -428208.37 -497475.43 925683.798        0.0
   9500     .0095  -367507.85 -78618.546 379824.036 -458442.58 -288889.31 747331.889        0.0
  10000       .01  -250894.97 -136804.54 321969.472 -458774.01 -114090.43 572864.444        0.0
 ***                                                             Close switch  "X0003C"  to  "XX0009"  after  1.00010000E-02  sec.
  10500     .0105  -236033.07 -261211.63 28281.1998 -289492.83 25178.5691 264314.265 942.706661
  11000      .011  -151451.97 -296900.58 26806.3952 -323706.98 145448.614 178258.366 893.546508
  11500     .0115   -87080.31 -335131.77 27514.3259  -362646.1 248051.462 114594.636 917.144197
  12000      .012  -41720.984  -374984.9 30965.4188 -405950.31 333263.912 72686.4025 1032.18063
  12500     .0125   -5867.893 -397680.11 33971.0578 -431651.16 391812.213 39838.9508 1132.36859
  13000      .013  19738.2775 -421722.39 37188.3248 -458910.72 441460.669 17450.0473 1239.61083
  13500     .0135  2756.87094 -456098.87 41142.4085 -497241.28 458855.745 38385.5375 1371.41362
  14000      .014  -35166.356 -554519.49 53716.2826 -608235.78 519353.137 88882.6391 1790.54275
  14500     .0145  57771.7198 -532803.05 63694.3416 -596497.39 590574.769 5922.62176 2123.14472
  15000      .015  159026.519 -485686.93 66450.8464 -552137.78 644713.452 -92575.673 2215.02821
  15500     .0155  248930.729 -434867.62 60937.5777  -495805.2 683798.353 -187993.15 2031.25259
  16000      .016   341715.74 -372251.18 51697.8979 -423949.08 713966.922 -290017.84 1723.26326
  16500     .0165  438221.613  -288400.9 40775.9504 -329176.85 726622.518 -397445.66 1359.19835
  17000      .017  532997.434 -180111.87 27962.3274  -208074.2 713109.303 -505035.11 932.077579
  17500     .0175  610723.863 -50748.241 14211.5513 -64959.792 661472.104 -596512.31 473.718378
  18000      .018  649120.484 91736.1234 4568.81621 87167.3072 557384.361 -644551.67 152.293874
  18500     .0185  652975.288 236360.848 -288.66326 236649.512  416614.44 -653263.95 -9.6221086
  19000      .019  617836.699 364452.491 -6666.5903 371119.081 253384.208 -624503.29 -222.21968
  19500     .0195  546969.687 473929.932 -14889.665 488819.597 73039.7552 -561859.35 -496.32217
  20000       .02  441673.465 559313.511 -24017.016 583330.528 -117640.05 -465690.48 -800.56721
  20500     .0205  310165.456 616425.888 -33088.316 649514.204 -306260.43 -343253.77 -1102.9439
  21000      .021  162907.497 642661.409  -41683.18 684344.589 -479753.91 -204590.68 -1389.4393
  21500     .0215  7727.25568 631566.173   -49347.3 680913.472 -623838.92 -57074.555   -1644.91
  22000      .022   -147420.1 582215.638 -54394.711 636610.349 -729635.74 93025.3898  -1813.157
  22500     .0225  -283997.31 511795.745 -56180.771 567976.516 -795793.06  227816.54 -1872.6924
  23000      .023  -391885.98 432831.805 -55074.868 487906.673 -824717.79 336811.117 -1835.8289
  23500     .0235  -470739.61 347262.543 -52072.257   399334.8 -818002.16 418667.355 -1735.7419
  24000      .024  -522341.85 256181.817 -47710.554 303892.371 -778523.67 474631.301 -1590.3518
  24500     .0245  -548392.06 162870.597 -42114.921 204985.518 -711262.66 506277.144 -1403.8307
  25000      .025  -550980.53 72417.1988 -35485.551  107902.75 -623397.73  515494.98 -1182.8517
  25500     .0255  -534763.21 -11930.369 -28056.029 16125.6598 -522832.84 506707.177 -935.20095
  26000      .026  -505319.98 -90158.606 -19472.159 -70686.446 -415161.37 485847.818 -649.07197
  26500     .0265   -466414.1 -163672.55 -9313.8151 -154358.73 -302741.55 457100.284  -310.4605
  27000      .027  -420918.72 -234277.08  2021.4504 -236298.54 -186641.64 422940.175 67.3816799
  27500     .0275  -370112.27 -302046.48 13692.6485 -315739.13 -68065.793 383804.922 456.421617
  28000      .028  -314142.88 -365867.51 24928.4647 -390795.98  51724.637 339071.342 830.948824
  28500     .0285  -252394.77  -424026.3 35150.5699 -459176.87  171631.53 287545.338 1171.68566
  29000      .029  -183573.07 -474377.06  43870.934 -518247.99 290803.987 227444.006 1462.36447
  29500     .0295  -107275.35 -514770.59 50674.5371 -565445.13 407495.242 157949.884 1689.15124
  30000       .03  -24348.546 -542592.53 55403.4552 -597995.98 518243.981 79752.0014 1846.78184
  30500     .0305  64483.9686 -553683.24 58122.5204 -611805.76  618167.21 -6361.4482 1937.41735
  31000      .031  158266.432 -543426.37 58950.4104 -602376.78 701692.802 -99316.022 1965.01368
  31500     .0315  254349.555 -508927.02 57939.3085 -566866.33 763276.575 -196410.25 1931.31028
  32000      .032  348178.793 -449886.49 55091.8296 -504978.32 798065.287 -293086.96 1836.39432
  32500     .0325   434169.08  -368115.2 50446.0078 -418561.21 802284.283 -383723.07 1681.53359
  33000      .033  506800.226 -266860.17  44089.935 -310950.11 773660.397 -462710.29  1469.6645
  33500     .0335  561160.733 -150754.59 36162.1362 -186916.73 711915.323  -524998.6 1205.40454
  34000      .034  593182.214 -25842.038 26927.9744 -52770.013 619024.252 -566254.24 897.599148
  34500     .0345  599979.599   100872.6 16800.3899   84072.21 499106.999 -583179.21 560.012995
  35000      .035  580236.131 222168.624 6237.08281 215931.541 358067.507 -573999.05  207.90276
  35500     .0355  534525.771 331505.271 -4355.8402 335861.112 203020.499 -538881.61 -145.19467
  36000      .036   465294.54 423657.812 -14634.556 438292.368  41636.728  -479929.1 -487.81855
  36500     .0365  376517.711 494962.461 -24289.994 519252.455 -118444.75  -400807.7 -809.66647
  37000      .037  273205.013 543354.216 -33040.841 576395.057  -270149.2 -306245.85 -1101.3614
  37500     .0375  160793.759 568225.601 -40643.382 608868.983 -407431.84 -201437.14 -1354.7794
  38000      .038  44674.4495 570236.341 -46879.743 617116.084 -525561.89 -91554.193 -1562.6581
  38500     .0385  -70009.762  551197.27 -51537.862 602735.132 -621207.03 18471.9002 -1717.9287
  39000      .039  -178529.74 513848.286 -54414.791 568263.078 -692378.03 124114.953 -1813.8264
  39500     .0395  -276862.17 461381.447 -55346.525 516727.971 -738243.62 221515.647 -1844.8842
  40000       .04  -361956.04 396903.688 -54242.169 451145.857 -758859.73 307713.873 -1808.0723
  40500     .0405  -431768.88 323115.048 -51101.842  374216.89 -754883.93 380667.036 -1703.3947
  41000      .041  -485074.43  242261.26  -46021.65  288282.91 -727335.69 439052.785  -1534.055
  41500     .0415   -521239.1 156219.758 -39190.683 195410.441 -677458.86 482048.417 -1306.3561
  42000      .042  -540086.73 66609.7268 -30873.715 97483.4419 -606696.46 509213.016 -1029.1238
  % % % % % %   Suspended simulation;  plot data space exhausted;  SPY SPACE is required.   LIMBUF =  340000.
  % % % % % %   Suspended simulation;  plot data space exhausted;  SPY SPACE is required.   LIMBUF =  340000.
  +++  Time-sharing disabled.   Send  user-keyed interrupt to silence alarm.
