   ---   46   cards of disk file read into card cache cells  1   onward.
 <===> Done with  "/"-card sorting by data class.    Remember that the source file appears different from interpreted input data.
Alternative Transients Program (ATP),  F77 GNU Linux or DOS.  All rights reserved by Can/Am user group of Portland, Oregon, USA.
 Date (dd-mth-yy) and time of day (hh.mm.ss) = 11-Nov-18  11.00.00    Name of disk plot file, if any, is
Consult the 860-page ATP Rule Book of the Can/Am EMTP User Group in Portland,  Oregon, USA.  Source code date is
Total size of LABCOM tables = 16446853 INTEGER words.  31 VARDIM  List Sizes follow:  6002  10K  192K  900  420K  1200  15K
  120K  2250  3800  720  2K  72800  510  800K  800  90  254  800K  100K  3K  15K  192K  120  45K  260K  600  210K  1100  19  200K
--------------------------------------------------+--------------------------------------------------------------------------------
Descriptive interpretation of input data cards.   |  Input data card images are shown below, all 80 columns, character by character
                                                  0         1         2         3         4         5         6         7         8
                                                  012345678901234567890123456789012345678901234567890123456789012345678901234567890
--------------------------------------------------+--------------------------------------------------------------------------------
Comment card.   KOMPAR > 0.                       |C data:Caso0_ReEnergizacao_OTIMIZADA_SemControle.atp
Marker card preceding new EMTP data case.         |BEGIN NEW DATA CASE
Comment card.   KOMPAR > 0.                       |C $DUMMY, XYZ000
Misc. data.     1.000E-06   1.000E+00   0.000E+00 |   1.E-6      1.
Misc. data.  500  1  0  0  1  0  0  1  300  0     |     500       1       0       0       1       0       0       1     300
Statistics data.      1    1    0    0    1    0  |       1       1       0       0       1      -1                               0
Series R-L-C.   5.000E+00  7.500E-02  0.000E+00   |  X0001AX0007A                5.   75.                                         0
Series R-L-C.   5.000E+00  7.500E-02  0.000E+00   |  X0001BX0007B                5.   75.                                         0
Series R-L-C.   5.000E+00  7.500E-02  0.000E+00   |  X0001CX0007C                5.   75.                                         0
Series R-L-C.   2.000E+02  0.000E+00  0.000E+00   |  X0007AX0001A              200.                                               0
Series R-L-C.   2.000E+02  0.000E+00  0.000E+00   |  X0007BX0001B              200.                                               0
Series R-L-C.   2.000E+02  0.000E+00  0.000E+00   |  X0007CX0001C              200.                                               0
Series R-L-C.   1.321E+00  1.401E+00  0.000E+00   |  X0003BXX0008            1.32071401.3                                         0
Series R-L-C.   1.321E+00  1.401E+00  0.000E+00   |  X0003AXX0008            1.32071401.3                                         0
Series R-L-C.   1.321E+00  1.401E+00  0.000E+00   |  X0003CXX0008            1.32071401.3                                         0
Series R-L-C.   3.900E-01  4.138E-01  0.000E+00   |  XX0008                     .39 413.8                                         0
Series R-L-C.   3.000E+01  0.000E+00  0.000E+00   |  XX0009                     30.                                               0
Dynamic $INCLUDE uses fixed RAM cache to delay.   |$INSERT, C:\SimulacaoATP\EXT1.pch
J. Marti line, mode  1   parameters begin.        |-1X0002AX0005C                2.  0.00              -2 3
J. Marti line, mode  2   parameters begin.        |-2X0002BX0005A                2.  0.00              -2 3
J. Marti line, mode  3   parameters begin.        |-3X0002CX0005B                2.  0.00              -2 3
TR(1,1 )...  0.671-0.707-0.324                    |  0.67102882 -0.70710678 -0.32400803
TI(1,1 )...  0.000 0.000 0.003                    |  0.00000000  0.00000000  0.00341127
TR(2,1 )...  0.315 0.000 0.889                    |  0.31480489  0.00000000  0.88876566
TI(2,1 )... -0.018 0.000 0.010                    | -0.01839933  0.00000000  0.01048452
TR(3,1 )...  0.671 0.707-0.324                    |  0.67102882  0.70710678 -0.32400803
TI(3,1 )...  0.000 0.000 0.003                    |  0.00000000  0.00000000  0.00341127
Dynamic $INCLUDE uses fixed RAM cache to delay.   |$INSERT, C:\SimulacaoATP\OTIM2.pch
J. Marti line, mode  1   parameters begin.        |-1X0004AX0006C                2.  0.00              -2 3
J. Marti line, mode  2   parameters begin.        |-2X0004BX0006A                2.  0.00              -2 3
J. Marti line, mode  3   parameters begin.        |-3X0004CX0006B                2.  0.00              -2 3
TR(1,1 )...  0.671-0.707-0.324                    |  0.67102882 -0.70710678 -0.32400803
TI(1,1 )...  0.000 0.000 0.003                    |  0.00000000  0.00000000  0.00341127
TR(2,1 )...  0.315 0.000 0.889                    |  0.31480489  0.00000000  0.88876566
TI(2,1 )... -0.018 0.000 0.010                    | -0.01839933  0.00000000  0.01048452
TR(3,1 )...  0.671 0.707-0.324                    |  0.67102882  0.70710678 -0.32400803
TI(3,1 )...  0.000 0.000 0.003                    |  0.00000000  0.00000000  0.00341127
Dynamic $INCLUDE uses fixed RAM cache to delay.   |$INSERT, C:\SimulacaoATP\OTIM3.pch
J. Marti line, mode  1   parameters begin.        |-1X0005AX0004C                2.  0.00              -2 3
J. Marti line, mode  2   parameters begin.        |-2X0005BX0004A                2.  0.00              -2 3
J. Marti line, mode  3   parameters begin.        |-3X0005CX0004B                2.  0.00              -2 3
TR(1,1 )...  0.671-0.707-0.324                    |  0.67102882 -0.70710678 -0.32400803
TI(1,1 )...  0.000 0.000 0.003                    |  0.00000000  0.00000000  0.00341127
TR(2,1 )...  0.315 0.000 0.889                    |  0.31480489  0.00000000  0.88876566
TI(2,1 )... -0.018 0.000 0.010                    | -0.01839933  0.00000000  0.01048452
TR(3,1 )...  0.671 0.707-0.324                    |  0.67102882  0.70710678 -0.32400803
TI(3,1 )...  0.000 0.000 0.003                    |  0.00000000  0.00000000  0.00341127
Dynamic $INCLUDE uses fixed RAM cache to delay.   |$INSERT, C:\SimulacaoATP\EXT4.pch
J. Marti line, mode  1   parameters begin.        |-1X0006AX0003A                2.  0.00              -2 3
J. Marti line, mode  2   parameters begin.        |-2X0006BX0003B                2.  0.00              -2 3
J. Marti line, mode  3   parameters begin.        |-3X0006CX0003C                2.  0.00              -2 3
TR(1,1 )...  0.671-0.707-0.324                    |  0.67102882 -0.70710678 -0.32400803
TI(1,1 )...  0.000 0.000 0.003                    |  0.00000000  0.00000000  0.00341127
TR(2,1 )...  0.315 0.000 0.889                    |  0.31480489  0.00000000  0.88876566
TI(2,1 )... -0.018 0.000 0.010                    | -0.01839933  0.00000000  0.01048452
TR(3,1 )...  0.671 0.707-0.324                    |  0.67102882  0.70710678 -0.32400803
TI(3,1 )...  0.000 0.000 0.003                    |  0.00000000  0.00000000  0.00341127
Blank card ending branches.  IBR, NTOT = 23  24   |BLANK BRANCH
Switch.   5.50E-02  1.00E-03  0.00E+00  3.33E+03  |  X0001BX0002B      .055      .001               3333.STATISTICS               0
Switch.   5.50E-02  1.00E-03  0.00E+00  3.33E+03  |  X0001AX0002A      .055      .001               3333.STATISTICS               0
Switch.   5.50E-02  1.00E-03  0.00E+00  3.33E+03  |  X0001CX0002C      .055      .001               3333.STATISTICS               0
Switch.   1.00E-02  1.00E-03  0.00E+00  0.00E+00  |  X0003CXX0009       .01      .001                    STATISTICS               1
Switch.   7.00E-01  1.00E-03  0.00E+00  0.00E+00  |  X0001BX0002B        .7      .001                    STATISTICS               0
Switch.   7.00E-01  1.00E-03  0.00E+00  0.00E+00  |  X0001AX0002A        .7      .001                    STATISTICS               0
Switch.   7.00E-01  1.00E-03  0.00E+00  0.00E+00  |  X0001CX0002C        .7      .001                    STATISTICS               0
Blank card ending switches.   KSWTCH = 7.         |BLANK SWITCH
Source.   4.29E+05  6.00E+01  0.00E+00 -1.00E+00  |14X0007A  428660.705       60.                                     -1.      100.
Source.   4.29E+05  6.00E+01 -1.20E+02 -1.00E+00  |14X0007B  428660.705       60.     -120.                           -1.      100.
Source.   4.29E+05  6.00E+01 -2.40E+02 -1.00E+00  |14X0007C  428660.705       60.     -240.                           -1.      100.
Blank card ends electric sources.  KCONST = 3     |BLANK SOURCE

     Total network loss  P-loss  by summing injections =   4.331165707202E+06

Card of names for time-step loop output.          |  X0003AX0003BX0003C
Output voltage differences for pairs of A6 names  |-5X0003BX0003CX0003AX0003BX0003CX0003A
Blank card ending requests for output variables.  |BLANK OUTPUT

Column headings for the  7   EMTP output variables follow.  These are divided among the 5 possible classes as follows ....
  First  6     output variables are electric-network voltage differences (upper voltage minus lower voltage);
  Next   1     output variables are branch currents (flowing from the upper node to the lower node);
   Step      Time      X0003A     X0003B     X0003C     X0003B     X0003A     X0003C     X0003C
                                                        X0003C     X0003B     X0003A     XX0009
 ***      Phasor I(0) =  7.3173732E+02                     Switch  "X0001B"  to  "X0002B"  closed in the steady-state.
 ***      Phasor I(0) =  6.6532395E+00                     Switch  "X0001A"  to  "X0002A"  closed in the steady-state.
 ***      Phasor I(0) = -7.4461656E+02                     Switch  "X0001C"  to  "X0002C"  closed in the steady-state.
      0       0.0   454775.78 -230831.19 -216380.18 -14451.004 685606.968 -671155.96        0.0
    500     .5E-3   445652.48 -153805.73 -285979.55 132173.817 599458.211 -731632.03        0.0
   1000     .1E-2  423030.382 -71920.891 -344881.43 272960.541 494951.273 -767911.81        0.0
   1500     .0015  385448.976 13176.5389 -391701.39 404877.931 372272.437 -777150.37        0.0
   2000      .002  334960.844 97655.1421 -424137.55 521792.696 237305.702  -759098.4        0.0
   2500     .0025  272304.472 178319.319  -442325.4 620644.721  93985.153 -714629.87        0.0
   3000      .003  200371.651 252290.692 -445355.37 697646.067 -51919.041 -645727.03        0.0
   3500     .0035  121589.493 317676.748 -431999.75 749676.503 -196087.26 -553589.25        0.0
   4000      .004  38612.3783 371732.628 -403592.94  775325.57 -333120.25 -442205.32        0.0
   4500     .0045  -46029.597  412685.78 -361049.64  773735.42 -458715.38 -315020.04        0.0
   5000      .005  -129078.26 439646.777 -305425.65 745072.426 -568725.03 -176347.39        0.0
   5500     .0055  -207780.76 451042.221  -238949.8 689992.025 -658822.98 -31169.047        0.0
   6000      .006  -279569.75 446416.652 -164153.55 610570.207  -725986.4 115416.196        0.0
   6500     .0065  -341879.16 425902.833 -83427.637 509330.471 -767781.99 258451.522        0.0
   7000      .007  -392112.18 390484.166 415.842906 390068.323 -782596.35 392528.023        0.0
   7500     .0075  -428463.87 341297.127 84346.2804 256950.847 -769760.99 512810.148        0.0
   8000      .008  -449796.82 279873.609 165249.693 114623.916 -729670.43  615046.51        0.0
   8500     .0085  -454998.75 208361.981   240333.7 -31971.719 -663360.73 695332.446        0.0
   9000      .009  -443910.36 129314.204 306846.682 -177532.48 -573224.56 750757.039        0.0
   9500     .0095  -416977.61 45467.0892 362361.262 -316894.17  -462444.7 779338.874        0.0
  10000       .01  -375034.62 -40066.304 404934.528 -445000.83 -334968.31 779969.146        0.0
 ***                                                             Close switch  "X0003C"  to  "XX0009"  after  1.00010000E-02  sec.
  10500     .0105  -449270.37  -251836.8 44509.6706 -296346.47 -197433.57 493780.037 1483.65569
  11000      .011  -386956.02 -335922.16 47695.1257 -383617.29 -51033.865  434651.15 1589.83752
  11500     .0115   -307597.9 -408464.63  49580.229 -458044.86 100866.734 357178.128  1652.6743
  12000      .012   -226713.8 -477590.23 52410.6125 -530000.85 250876.434 279124.412 1747.02042
  12500     .0125  -130418.76 -514565.78  52309.124  -566874.9 384147.016 182727.884 1743.63747
  13000      .013  -12407.111 -530623.02 48905.4029 -579528.43 518215.913 61312.5136  1630.1801
  13500     .0135    56309.64 -535136.62 44630.7127 -579767.33 591446.259 -11678.927 1487.69042
  14000      .014   58584.639 -620167.83 53947.9679  -674115.8 678752.469 -4636.6711  1798.2656
  14500     .0145  191984.109 -558930.42 65032.8783  -623963.3 750914.527 -126951.23 2167.76261
  15000      .015  321102.726 -458396.29 71955.3575 -530351.64 779499.012 -249147.37 2398.51192
  15500     .0155  410704.985 -361970.68 70016.9518 -431987.64 772675.668 -340688.03 2333.89839
  16000      .016   477813.93 -268748.07 63200.1524 -331948.22 746562.002 -414613.78 2106.67175
  16500     .0165  530395.553  -167711.5  53741.734 -221453.23 698107.052 -476653.82 1791.39113
  17000      .017  571319.856 -57540.255 40601.5965 -98141.852 628860.111 -530718.26 1353.38655
  17500     .0175  594634.153 53962.8966 23981.4248 29981.4718 540671.256 -570652.73 799.380827
  18000      .018   581737.13 160907.212 10948.6453 149958.566 420829.919 -570788.48 364.954844
  18500     .0185  547273.983 261968.032 4838.51889 257129.513 285305.951 -542435.46 161.283963
  19000      .019  492236.907 345327.553 -1571.5575 346899.111 146909.354 -493808.46  -52.38525
  19500     .0195  423157.081  417760.04 -9350.1499  427110.19 5397.04144 -432507.23 -311.67166
  20000       .02  338395.335 477835.844 -17937.243 495773.087 -139440.51 -356332.58  -597.9081
  20500     .0205  242044.136 523585.029 -26571.732 550156.761 -281540.89 -268615.87 -885.72439
  21000      .021  139047.576 555160.989 -35267.705 590428.694 -416113.41 -174315.28 -1175.5902
  21500     .0215  29044.3014 564688.483 -43961.787 608650.269 -535644.18 -73006.088 -1465.3929
  22000      .022   -89649.09 544245.261 -50507.382 594752.643 -633894.35  39141.708 -1683.5794
  22500     .0225  -202261.51 506686.106 -53484.512 560170.618 -708947.62 148777.001 -1782.8171
  23000      .023  -299330.54 461487.492 -52751.332 514238.824 -760818.04 246579.211 -1758.3777
  23500     .0235  -381028.33 405615.172 -49366.621 454981.793 -786643.51 331661.713  -1645.554
  24000      .024  -448545.84 335321.003 -44169.908 379490.911 -783866.84 404375.934 -1472.3303
  24500     .0245  -500425.16 250920.649 -37553.163 288473.812 -751345.81 462871.998 -1251.7721
  25000      .025   -533435.9 156824.102 -30033.746 186857.847   -690260. 503402.155 -1001.1249
  25500     .0255  -547149.36 57373.6582 -22254.295 79627.9527 -604523.02 524895.065 -741.80982
  26000      .026  -543452.54 -45008.215 -13993.138 -31015.076 -498444.33 529459.402 -466.43794
  26500     .0265  -523068.47 -147856.54 -4556.3364  -143300.2 -375211.93  518512.13 -151.87788
  27000      .027  -486758.29 -248361.86 5977.01855 -254338.88 -238396.43 492735.309 199.233952
  27500     .0275  -434836.01 -341823.99 16945.4807 -358769.47  -93012.02 451781.493 564.849356
  28000      .028  -368144.03 -423244.07 27666.5303  -450910.6 55100.0414 395810.557 922.217676
  28500     .0285  -288432.11 -488501.79 37606.4243 -526108.22 200069.681 326038.538 1253.54748
  29000      .029  -197568.56 -534654.59 46241.9519 -580896.55 337086.029 243810.517  1541.3984
  29500     .0295  -98607.511 -560630.72 53027.8121 -613658.53 462023.207 151635.323 1767.59374
  30000       .03  4030.45092 -566782.62 57691.0541 -624473.68 570813.072 53660.6031 1923.03514
  30500     .0305  106720.677 -552896.92 60283.8467 -613180.77 659617.601 -46436.831 2009.46156
  31000      .031  206925.766 -518318.11 60995.8966   -579314. 725243.873 -145929.87 2033.19655
  31500     .0315  301706.307 -463688.05 59955.6131 -523643.66 765394.357 -241750.69 1998.52044
  32000      .032  387313.381  -391552.9 57195.3082 -448748.21 778866.283 -330118.07 1906.51027
  32500     .0325  459918.529 -305456.17 52743.4858 -358199.66 765374.702 -407175.04 1758.11619
  33000      .033  516452.124 -208887.76 46644.4206 -255532.18 725339.881  -469807.7 1554.81402
  33500     .0335  554669.759  -105259.9 38948.4429 -144208.34 659929.656 -515721.32 1298.28143
  34000      .034  572875.829 1695.39587 29820.4125 -28125.017 571180.433 -543055.42 994.013749
  34500     .0345  569945.396 107937.318 19619.2982 88318.0197 462008.078  -550326.1 653.976606
  35000      .035  545568.977 209410.153  8814.9898 200595.163 336158.824 -536753.99 293.832993
  35500     .0355  500547.586 302514.071 -2130.8933 304644.964 198033.515 -502678.48 -71.029777
  36000      .036  436786.063 384330.534 -12802.203 397132.737 52455.5291 -449588.27 -426.74009
  36500     .0365  357059.444 452512.845 -22816.766 475329.612 -95453.401 -379876.21 -760.55887
  37000      .037  264775.364 505151.778 -31835.218 536986.996 -240376.41 -296610.58 -1061.1739
  37500     .0375  163644.169 540655.688 -39588.628 580244.316 -377011.52  -203232.8 -1319.6209
  38000      .038  57420.1582 557735.738 -45869.809 603605.547 -500315.58 -103289.97 -1528.9936
  38500     .0385  -50091.525 555633.492 -50497.673 606131.165 -605725.02 -406.14836 -1683.2558
  39000      .039  -155005.22 534361.781 -53301.202 587662.983   -689367.  101704.02 -1776.7067
  39500     .0395  -253536.48 494675.686 -54140.022 548815.707 -748212.16 199396.457 -1804.6674
  40000       .04  -342287.34 437880.394 -52939.362 490819.756 -780167.73 289347.976 -1764.6454
  40500     .0405  -418398.55 365741.934 -49710.273 415452.206 -784140.48 368688.274 -1657.0091
  41000      .041  -479514.81 280551.145 -44556.819 325107.965 -760065.95 434957.986 -1485.2273
  41500     .0415  -523741.84 185165.273 -37677.594 222842.867 -708907.11 486064.245 -1255.9198
  42000      .042  -549708.55 82912.3453 -29350.954 112263.299  -632620.9 520357.598 -978.36513
  % % % % % %   Suspended simulation;  plot data space exhausted;  SPY SPACE is required.   LIMBUF =  340000.
  % % % % % %   Suspended simulation;  plot data space exhausted;  SPY SPACE is required.   LIMBUF =  340000.
  +++  Time-sharing disabled.   Send  user-keyed interrupt to silence alarm.
   Current values.  INDBUF  INDBEG  LIMBUF  MFLUSH  NUMDCD  KCARD1  KCARD2
                    339994      50  340000    1000      37       1      41
Plot timespan now in memory (in sec) = 0.00000000E+00   4.24930000E-02
   ++++  Begin plot-data copy from memory to disk.   MFLUSH, INDBUF, N4, Tbeg,  Tend = 1001  339994       1  -1.00000E+00
1.00000E+19
  42500     .0425  -556661.03 -22594.974 -19904.714 -2690.2596 -534066.06 536756.316 -663.49047
  43000      .043  -544492.75 -127634.38 -9689.9888 -117944.39 -416858.37 534802.758 -322.99963
  43500     .0435  -513694.58 -228481.99 930.214705 -229412.21 -285212.59 514624.795 31.0071568
  44000      .044  -465285.83 -321493.05 11586.4334 -333079.48 -143792.78 476872.264 386.214447
  44500     .0445   -400782.7 -403218.62 21911.6716 -425130.29 2435.91604 422694.373 730.389054
  45000      .045  -322195.94 -470564.68 31551.4953 -502116.17 148368.739 353747.433 1051.71651
  45500     .0455  -232029.27 -520966.82 40170.6405 -561137.46 288937.557 272199.908 1339.02135
  46000      .046  -133252.24 -552536.96 47460.0195 -599996.98 419284.726 180712.256 1582.00065
  46500     .0465  -29223.303 -564139.56 53149.6397  -617289.2 534916.262 82372.9429 1771.65466
  47000      .047  76433.6892 -555399.33 57025.6517 -612424.98 631833.019 -19408.038 1900.85506
  47500     .0475    179967.1 -526683.17 58944.4809 -585627.65 706650.271 -121022.62 1964.81603
