   ---   55   cards of disk file read into card cache cells  1   onward.
 <===> Done with  "/"-card sorting by data class.    Remember that the source file appears different from interpreted input data.
Alternative Transients Program (ATP),  F77 GNU Linux or DOS.  All rights reserved by Can/Am user group of Portland, Oregon, USA.
 Date (dd-mth-yy) and time of day (hh.mm.ss) = 11-Nov-18  11.00.00    Name of disk plot file, if any, is
Consult the 860-page ATP Rule Book of the Can/Am EMTP User Group in Portland,  Oregon, USA.  Source code date is
Total size of LABCOM tables = 16446853 INTEGER words.  31 VARDIM  List Sizes follow:  6002  10K  192K  900  420K  1200  15K
  120K  2250  3800  720  2K  72800  510  800K  800  90  254  800K  100K  3K  15K  192K  120  45K  260K  600  210K  1100  19  200K
--------------------------------------------------+--------------------------------------------------------------------------------
Descriptive interpretation of input data cards.   |  Input data card images are shown below, all 80 columns, character by character
                                                  0         1         2         3         4         5         6         7         8
                                                  012345678901234567890123456789012345678901234567890123456789012345678901234567890
--------------------------------------------------+--------------------------------------------------------------------------------
Comment card.   KOMPAR > 0.                       |C data:Caso0_ReEnergizacao_OTIMIZADA_SemControle.atp
Marker card preceding new EMTP data case.         |BEGIN NEW DATA CASE
Comment card.   KOMPAR > 0.                       |C $DUMMY, XYZ000
Misc. data.     1.000E-06   1.000E+00   0.000E+00 |   1.E-6      1.
Misc. data.  500  1  0  0  1  0  0  1  300  0     |     500       1       0       0       1       0       0       1     300
Statistics data.      1    1    0    0    1    0  |       1       1       0       0       1      -1                               0
Series R-L-C.   5.000E+00  7.500E-02  0.000E+00   |  X0001AX0007A                5.   75.                                         0
Series R-L-C.   5.000E+00  7.500E-02  0.000E+00   |  X0001BX0007B                5.   75.                                         0
Series R-L-C.   5.000E+00  7.500E-02  0.000E+00   |  X0001CX0007C                5.   75.                                         0
Series R-L-C.   2.000E+02  0.000E+00  0.000E+00   |  X0007AX0001A              200.                                               0
Series R-L-C.   2.000E+02  0.000E+00  0.000E+00   |  X0007BX0001B              200.                                               0
Series R-L-C.   2.000E+02  0.000E+00  0.000E+00   |  X0007CX0001C              200.                                               0
Series R-L-C.   1.321E+00  1.401E+00  0.000E+00   |  X0003BXX0008            1.32071401.3                                         0
Series R-L-C.   1.321E+00  1.401E+00  0.000E+00   |  X0003AXX0008            1.32071401.3                                         0
Series R-L-C.   1.321E+00  1.401E+00  0.000E+00   |  X0003CXX0008            1.32071401.3                                         0
Series R-L-C.   3.900E-01  4.138E-01  0.000E+00   |  XX0008                     .39 413.8                                         0
Series R-L-C.   3.000E+01  0.000E+00  0.000E+00   |  XX0009                     30.                                               0
Series R-L-C.   7.000E+02  0.000E+00  0.000E+00   |  X0002AX0010A              700.                                               0
Series R-L-C.   7.000E+02  0.000E+00  0.000E+00   |  X0002BX0010B              700.                                               0
Series R-L-C.   7.000E+02  0.000E+00  0.000E+00   |  X0002CX0010C              700.                                               0
Dynamic $INCLUDE uses fixed RAM cache to delay.   |$INSERT, C:\SimulacaoATP\2\EXT1.pch
J. Marti line, mode  1   parameters begin.        |-1X0010AX0005C                2.  0.00              -2 3
J. Marti line, mode  2   parameters begin.        |-2X0010BX0005A                2.  0.00              -2 3
J. Marti line, mode  3   parameters begin.        |-3X0010CX0005B                2.  0.00              -2 3
TR(1,1 )...  0.671-0.707-0.324                    |  0.67102882 -0.70710678 -0.32400803
TI(1,1 )...  0.000 0.000 0.003                    |  0.00000000  0.00000000  0.00341127
TR(2,1 )...  0.315 0.000 0.889                    |  0.31480489  0.00000000  0.88876566
TI(2,1 )... -0.018 0.000 0.010                    | -0.01839933  0.00000000  0.01048452
TR(3,1 )...  0.671 0.707-0.324                    |  0.67102882  0.70710678 -0.32400803
TI(3,1 )...  0.000 0.000 0.003                    |  0.00000000  0.00000000  0.00341127
Dynamic $INCLUDE uses fixed RAM cache to delay.   |$INSERT, C:\SimulacaoATP\2\OTIM2.pch
J. Marti line, mode  1   parameters begin.        |-1X0004AX0006C                2.  0.00              -2 3
J. Marti line, mode  2   parameters begin.        |-2X0004BX0006A                2.  0.00              -2 3
J. Marti line, mode  3   parameters begin.        |-3X0004CX0006B                2.  0.00              -2 3
TR(1,1 )...  0.671-0.707-0.324                    |  0.67102882 -0.70710678 -0.32400803
TI(1,1 )...  0.000 0.000 0.003                    |  0.00000000  0.00000000  0.00341127
TR(2,1 )...  0.315 0.000 0.889                    |  0.31480489  0.00000000  0.88876566
TI(2,1 )... -0.018 0.000 0.010                    | -0.01839933  0.00000000  0.01048452
TR(3,1 )...  0.671 0.707-0.324                    |  0.67102882  0.70710678 -0.32400803
TI(3,1 )...  0.000 0.000 0.003                    |  0.00000000  0.00000000  0.00341127
Dynamic $INCLUDE uses fixed RAM cache to delay.   |$INSERT, C:\SimulacaoATP\2\OTIM3.pch
J. Marti line, mode  1   parameters begin.        |-1X0005AX0004C                2.  0.00              -2 3
J. Marti line, mode  2   parameters begin.        |-2X0005BX0004A                2.  0.00              -2 3
J. Marti line, mode  3   parameters begin.        |-3X0005CX0004B                2.  0.00              -2 3
TR(1,1 )...  0.671-0.707-0.324                    |  0.67102882 -0.70710678 -0.32400803
TI(1,1 )...  0.000 0.000 0.003                    |  0.00000000  0.00000000  0.00341127
TR(2,1 )...  0.315 0.000 0.889                    |  0.31480489  0.00000000  0.88876566
TI(2,1 )... -0.018 0.000 0.010                    | -0.01839933  0.00000000  0.01048452
TR(3,1 )...  0.671 0.707-0.324                    |  0.67102882  0.70710678 -0.32400803
TI(3,1 )...  0.000 0.000 0.003                    |  0.00000000  0.00000000  0.00341127
Dynamic $INCLUDE uses fixed RAM cache to delay.   |$INSERT, C:\SimulacaoATP\2\EXT4.pch
J. Marti line, mode  1   parameters begin.        |-1X0006AX0003A                2.  0.00              -2 3
J. Marti line, mode  2   parameters begin.        |-2X0006BX0003B                2.  0.00              -2 3
J. Marti line, mode  3   parameters begin.        |-3X0006CX0003C                2.  0.00              -2 3
TR(1,1 )...  0.671-0.707-0.324                    |  0.67102882 -0.70710678 -0.32400803
TI(1,1 )...  0.000 0.000 0.003                    |  0.00000000  0.00000000  0.00341127
TR(2,1 )...  0.315 0.000 0.889                    |  0.31480489  0.00000000  0.88876566
TI(2,1 )... -0.018 0.000 0.010                    | -0.01839933  0.00000000  0.01048452
TR(3,1 )...  0.671 0.707-0.324                    |  0.67102882  0.70710678 -0.32400803
TI(3,1 )...  0.000 0.000 0.003                    |  0.00000000  0.00000000  0.00341127
Blank card ending branches.  IBR, NTOT = 26  27   |BLANK BRANCH
Switch.   5.50E-02  1.00E-03  0.00E+00  3.33E+03  |  X0001BX0002B      .055      .001               3333.STATISTICS               0
Switch.   5.50E-02  1.00E-03  0.00E+00  3.33E+03  |  X0001AX0002A      .055      .001               3333.STATISTICS               0
Switch.   5.50E-02  1.00E-03  0.00E+00  3.33E+03  |  X0001CX0002C      .055      .001               3333.STATISTICS               0
Switch.   1.00E-02  1.00E-03  0.00E+00  0.00E+00  |  X0003CXX0009       .01      .001                    STATISTICS               1
Switch.   7.00E-01  1.00E-03  0.00E+00  0.00E+00  |  X0001BX0002B        .7      .001                    STATISTICS               0
Switch.   7.00E-01  1.00E-03  0.00E+00  0.00E+00  |  X0001AX0002A        .7      .001                    STATISTICS               0
Switch.   7.00E-01  1.00E-03  0.00E+00  0.00E+00  |  X0001CX0002C        .7      .001                    STATISTICS               0
Switch.   0.00E+00  6.98E-01  0.00E+00  0.00E+00  |  X0002AX0010A                .698                                             0
Switch.   0.00E+00  6.98E-01  0.00E+00  0.00E+00  |  X0002BX0010B                .698                                             0
Switch.   0.00E+00  6.98E-01  0.00E+00  0.00E+00  |  X0002CX0010C                .698                                             0
Switch.   7.10E-01  0.00E+00  0.00E+00  0.00E+00  |  X0002AX0010A       .71                                                       0
Switch.   7.10E-01  0.00E+00  0.00E+00  0.00E+00  |  X0002BX0010B       .71                                                       0
Switch.   7.10E-01  0.00E+00  0.00E+00  0.00E+00  |  X0002CX0010C       .71                                                       0
Blank card ending switches.   KSWTCH = 13.        |BLANK SWITCH
Source.   4.29E+05  6.00E+01  0.00E+00 -1.00E+00  |14X0007A  428660.705       60.                                     -1.      100.
Source.   4.29E+05  6.00E+01 -1.20E+02 -1.00E+00  |14X0007B  428660.705       60.     -120.                           -1.      100.
Source.   4.29E+05  6.00E+01 -2.40E+02 -1.00E+00  |14X0007C  428660.705       60.     -240.                           -1.      100.
Blank card ends electric sources.  KCONST = 3     |BLANK SOURCE

     Total network loss  P-loss  by summing injections =   2.595413345523E+08

Card of names for time-step loop output.          |  X0003AX0003BX0003C
Output voltage differences for pairs of A6 names  |-5X0003BX0003CX0003AX0003BX0003CX0003A
Blank card ending requests for output variables.  |BLANK OUTPUT

Column headings for the  7   EMTP output variables follow.  These are divided among the 5 possible classes as follows ....
  First  6     output variables are electric-network voltage differences (upper voltage minus lower voltage);
  Next   1     output variables are branch currents (flowing from the upper node to the lower node);
   Step      Time      X0003A     X0003B     X0003C     X0003B     X0003A     X0003C     X0003C
                                                        X0003C     X0003B     X0003A     XX0009
 ***      Phasor I(0) =  4.9202065E+01                     Switch  "X0001B"  to  "X0002B"  closed in the steady-state.
 ***      Phasor I(0) =  4.0508944E+02                     Switch  "X0001A"  to  "X0002A"  closed in the steady-state.
 ***      Phasor I(0) = -4.5075358E+02                     Switch  "X0001C"  to  "X0002C"  closed in the steady-state.
 ***                    Switch  "X0002A"  to  "X0010A"  closed  after  0.00000000E+00  sec.
 ***                    Switch  "X0002B"  to  "X0010B"  closed  after  0.00000000E+00  sec.
 ***                    Switch  "X0002C"  to  "X0010C"  closed  after  0.00000000E+00  sec.
      0       0.0  150257.834 -262624.43 109820.176 -372444.61 412882.266 -40437.658        0.0
    500     .5E-3  187385.069 -252674.94 63993.2002 -316668.14 440060.006 -123391.87        0.0
   1000     .1E-2  218725.749 -234177.52 15392.4413 -249569.96 452903.271 -203333.31        0.0
   1500     .0015  241424.602 -207620.53 -33650.787 -173969.75 449045.136 -275075.39        0.0
   2000      .002  547107.935 -118022.79 -494562.45 376539.665 665130.721 -.104167E7        0.0
   2500     .0025  555248.092 36175.1261 -617696.23 653871.356 519072.966 -.117294E7        0.0
   3000      .003  498058.506 170607.789 -700570.63 871178.415 327450.717 -.119863E7        0.0
   3500     .0035  405359.904 283453.476 -724351.96 .1007805E7 121906.428 -.112971E7        0.0
   4000      .004  294983.801 401493.654 -685273.16 .1086767E7 -106509.85 -980256.97        0.0
   4500     .0045  171985.766 506741.184 -630534.62 .1137276E7 -334755.42 -802520.38        0.0
   5000      .005  24940.8516 581251.977  -553358.7 .1134611E7 -556311.13 -578299.55        0.0
   5500     .0055  -225456.31  611000.76 -345155.64 956156.395 -836457.07 -119699.33        0.0
   6000      .006  -435182.74 578215.959 -115159.76 693375.719  -.10134E7 320022.979        0.0
   6500     .0065  -557785.69 517558.295  81973.536 435584.759 -.107534E7  639759.23        0.0
   7000      .007  -623721.67 437820.451 237939.766 199880.684 -.106154E7 861661.433        0.0
   7500     .0075  -649832.72  346175.41 339683.825 6491.58564 -996008.13 989516.544        0.0
   8000      .008  -641868.48 238293.784 405588.347 -167294.56 -880162.26 .1047457E7        0.0
   8500     .0085  -604897.45  118255.71 449995.508  -331739.8 -723153.16 .1054893E7        0.0
   9000      .009  -510047.38 3815.77474  443885.81 -440070.04 -513863.16 953933.195        0.0
   9500     .0095  -373145.65 -86915.037 389206.707 -476121.74 -286230.61 762352.354        0.0
  10000       .01  -246873.84 -151824.48 327597.013 -479421.49 -95049.365 574470.855        0.0
 ***                                                             Close switch  "X0003C"  to  "XX0009"  after  1.00010000E-02  sec.
  10500     .0105  -225092.35 -279670.56 28427.0231 -308097.58 54578.2049 253519.377 947.567437
  11000      .011  -134436.68 -314224.86  26486.761 -340711.62 179788.172 160923.444 882.892032
  11500     .0115  -66747.211 -349036.43  26774.104 -375810.53 282289.215 93521.3151 892.470135
  12000      .012  -20959.116 -383648.02 29937.1546 -413585.18 362688.906 50896.2701 997.905152
  12500     .0125  12399.6001 -400072.38 32816.1411 -432888.53 412471.985  20416.541 1093.87137
  13000      .013  31970.6503  -417572.1 36114.9792 -453687.08 449542.748 4144.32888 1203.83264
  13500     .0135  6320.04543 -446369.68 40324.3043 -486693.98 452689.723 34004.2589 1344.14348
  14000      .014  -40058.078 -542038.09 53361.8688 -595399.96 501980.012 93419.9468 1778.72896
  14500     .0145  48089.9963 -517959.79 63717.0181 -581676.81  566049.79 15627.0218  2123.9006
  15000      .015  145834.756 -471333.85 66607.9722 -537941.82 617168.605 -79226.784 2220.26574
  15500     .0155  233671.888 -423838.67 61005.4034 -484844.08  657510.56 -172666.48 2033.51345
  16000      .016  326471.484 -366433.15 51582.2583 -418015.41 692904.633 -274889.23 1719.40861
  16500     .0165   425325.82 -288694.33 40456.4832 -329150.81  714020.15 -384869.34 1348.54944
  17000      .017   524611.15 -186362.83 27469.7748 -213832.61 710973.982 -497141.38 915.659159
  17500     .0175  607864.735 -61732.871 13636.3924 -75369.263 669597.605 -594228.34 454.546413
  18000      .018  651487.628 78033.8515  4076.5883 73957.2632 573453.776 -647411.04 135.886277
  18500     .0185  659741.534 222256.375 -597.68167 222854.057 437485.158 -660339.22 -19.922722
  19000      .019  627676.742  352067.11 -6850.6023 358917.713 275609.631 -634527.34 -228.35341
  19500     .0195  558256.652  465107.58 -15021.103 480128.683 93149.0721 -573277.76 -500.70344
  20000       .02  452580.412 555261.487 -24147.409 579408.896 -102681.08 -476727.82 -804.91362
  20500     .0205  318911.241 617566.502 -33242.843 650809.345 -298655.26 -352154.08 -1108.0948
  21000      .021  168117.499 648525.663 -41868.002 690393.665 -480408.16  -209985.5 -1395.6001
  21500     .0215  8708.07969   640786.7 -49548.424 690335.125 -632078.62 -58256.504 -1651.6141
  22000      .022  -150586.63 592932.144 -54564.338 647496.483 -743518.77 96022.2899 -1818.8113
  22500     .0225  -290433.89 522249.814 -56274.483 578524.296 -812683.71 234159.411 -1875.8161
  23000      .023  -400299.12 441460.025 -55080.274 496540.299 -841759.14 345218.843 -1836.0091
  23500     .0235  -479739.95 352744.244 -52015.853 404760.097  -832484.2 427724.101 -1733.8618
  24000      .024  -530574.65 257655.258  -47636.91 305292.168 -788229.91 482937.738  -1587.897
  24500     .0245  -554676.49 160129.612 -42066.739 202196.351  -714806.1 512609.747 -1402.2246
  25000      .025  -554502.15  65996.868 -35493.828 101490.696 -620499.02 519008.325 -1183.1276
  25500     .0255  -535238.79 -20886.381 -28132.803 7246.42154 -514352.41 507105.992 -937.76009
  26000      .026  -502993.67 -100163.66 -19600.681 -80562.979 -402830.01 483392.993 -653.35604
  26500     .0265  -461925.18 -173163.98 -9456.9488 -163707.04  -288761.2 452468.231 -315.23163
  27000      .027    -415164. -241856.52 1897.61761 -243754.14 -173307.48 417061.618 63.2539203
  27500     .0275  -364097.55 -306660.23 13607.7031 -320267.94 -57437.313 377705.249 453.590104
  28000      .028   -308844.1 -366953.86 24888.4825 -391842.34 58109.7604 333732.579 829.616084
  28500     .0285  -248614.98 -421606.24 35151.9919 -456758.23 172991.261 283766.972 1171.73306
  29000      .029  -181814.06 -469049.94 43903.7133 -512953.65 287235.881 225717.771 1463.45711
  29500     .0295  -107688.44 -507602.17 50726.0235 -558328.19 399913.731 158414.463 1690.86745
  30000       .03   -26747.58   -534905. 55464.6436 -590369.64 508157.419 82212.2237 1848.82145
  30500     .0305  60584.0156  -546797.5 58190.7665 -604988.26 607381.514 -2393.2491 1939.69222
  31000      .031  153562.506  -538443.9 59026.9129 -597470.81 692006.402 -94535.593 1967.56376
  31500     .0315  249618.463 -506588.69 58024.3951 -564613.08 756207.148 -191594.07  1934.1465
  32000      .032  344140.023 -450491.17 55182.1665 -505673.33 794631.188 -288957.86 1839.40555
  32500     .0325  431371.171  -371489.4 50534.9638 -422024.37 802860.574 -380836.21 1684.49879
  33000      .033  505549.327 -272394.19 44169.3095  -316563.5 777943.512 -461380.02 1472.31032
  33500     .0335  561494.453 -157517.55  36224.626 -193742.17    719012. -525269.83 1207.48753
  34000      .034  594885.817 -32753.076 26970.7301 -59723.806 627638.894 -567915.09 899.024336
  34500     .0345  602639.896 94859.6034 16827.3635 78032.2399 507780.293 -585812.53 560.912117
  35000      .035  583322.608 217902.018 6257.88587 211644.132  365420.59 -577064.72 208.596196
  35500     .0355  537485.373 329517.433 -4329.4305 333846.864  207967.94  -541814.8 -144.31435
  36000      .036  467643.349 424100.497 -14592.015 438692.513  43542.852 -482235.36 -486.40052
  36500     .0365  377913.578 497599.578 -24224.262 521823.839   -119686. -402137.84 -807.47539
  37000      .037  273489.163 547614.156 -32949.442 580563.598 -274124.99 -306438.61 -1098.3147
  37500     .0375  159996.197 573305.008 -40528.578 613833.587 -413308.81 -200524.77 -1350.9526
  38000      .038  42989.5212 575238.193 -46747.415 621985.608 -532248.67 -89736.936 -1558.2472
  38500     .0385   -72266.79 555280.593 -51395.455 606676.048 -627547.38 20871.3352 -1713.1818
  39000      .039  -180978.71 516362.317 -54269.314 570631.631 -697341.03 126709.394 -1808.9771
  39500     .0395  -279121.88  461960.06 -55203.383 517163.443 -741081.94 223918.496 -1840.1128
  40000       .04  -363706.73 395507.377 -54104.908 449612.285 -759214.11 309601.824 -1803.4969
  40500     .0405  -432800.33 320019.176 -50972.378 370991.554 -752819.51 381827.954 -1699.0793
  41000      .041  -485310.16 237996.591 -45900.638  283897.23 -723306.75 439409.522 -1530.0213
  41500     .0415  -520735.57 151476.031 -39077.824 190553.855  -672211.6 481657.743 -1302.5941
  42000      .042   -539012.3 62118.0568 -30767.777 92885.8334 -601130.36 508244.522 -1025.5926
  % % % % % %   Suspended simulation;  plot data space exhausted;  SPY SPACE is required.   LIMBUF =  340000.
  % % % % % %   Suspended simulation;  plot data space exhausted;  SPY SPACE is required.   LIMBUF =  340000.
  +++  Time-sharing disabled.   Send  user-keyed interrupt to silence alarm.
