   ---   55   cards of disk file read into card cache cells  1   onward.
 <===> Done with  "/"-card sorting by data class.    Remember that the source file appears different from interpreted input data.
Alternative Transients Program (ATP),  F77 GNU Linux or DOS.  All rights reserved by Can/Am user group of Portland, Oregon, USA.
 Date (dd-mth-yy) and time of day (hh.mm.ss) = 11-Nov-18  11.00.00    Name of disk plot file, if any, is
Consult the 860-page ATP Rule Book of the Can/Am EMTP User Group in Portland,  Oregon, USA.  Source code date is
Total size of LABCOM tables = 16446853 INTEGER words.  31 VARDIM  List Sizes follow:  6002  10K  192K  900  420K  1200  15K
  120K  2250  3800  720  2K  72800  510  800K  800  90  254  800K  100K  3K  15K  192K  120  45K  260K  600  210K  1100  19  200K
--------------------------------------------------+--------------------------------------------------------------------------------
Descriptive interpretation of input data cards.   |  Input data card images are shown below, all 80 columns, character by character
                                                  0         1         2         3         4         5         6         7         8
                                                  012345678901234567890123456789012345678901234567890123456789012345678901234567890
--------------------------------------------------+--------------------------------------------------------------------------------
Comment card.   KOMPAR > 0.                       |C data:Caso0_ReEnergizacao_OTIMIZADA_SemControle.atp
Marker card preceding new EMTP data case.         |BEGIN NEW DATA CASE
Comment card.   KOMPAR > 0.                       |C $DUMMY, XYZ000
Misc. data.     1.000E-06   1.000E+00   0.000E+00 |   1.E-6      1.
Misc. data.  500  1  0  0  1  0  0  1  300  0     |     500       1       0       0       1       0       0       1     300
Statistics data.      1    1    0    0    1    0  |       1       1       0       0       1      -1                               0
Series R-L-C.   5.000E+00  7.500E-02  0.000E+00   |  X0001AX0007A                5.   75.                                         0
Series R-L-C.   5.000E+00  7.500E-02  0.000E+00   |  X0001BX0007B                5.   75.                                         0
Series R-L-C.   5.000E+00  7.500E-02  0.000E+00   |  X0001CX0007C                5.   75.                                         0
Series R-L-C.   2.000E+02  0.000E+00  0.000E+00   |  X0007AX0001A              200.                                               0
Series R-L-C.   2.000E+02  0.000E+00  0.000E+00   |  X0007BX0001B              200.                                               0
Series R-L-C.   2.000E+02  0.000E+00  0.000E+00   |  X0007CX0001C              200.                                               0
Series R-L-C.   1.321E+00  1.401E+00  0.000E+00   |  X0003BXX0008            1.32071401.3                                         0
Series R-L-C.   1.321E+00  1.401E+00  0.000E+00   |  X0003AXX0008            1.32071401.3                                         0
Series R-L-C.   1.321E+00  1.401E+00  0.000E+00   |  X0003CXX0008            1.32071401.3                                         0
Series R-L-C.   3.900E-01  4.138E-01  0.000E+00   |  XX0008                     .39 413.8                                         0
Series R-L-C.   3.000E+01  0.000E+00  0.000E+00   |  XX0009                     30.                                               0
Series R-L-C.   8.000E+02  0.000E+00  0.000E+00   |  X0002AX0010A              800.                                               0
Series R-L-C.   8.000E+02  0.000E+00  0.000E+00   |  X0002BX0010B              800.                                               0
Series R-L-C.   8.000E+02  0.000E+00  0.000E+00   |  X0002CX0010C              800.                                               0
Dynamic $INCLUDE uses fixed RAM cache to delay.   |$INSERT, C:\SimulacaoATP\3\EXT1.pch
J. Marti line, mode  1   parameters begin.        |-1X0010AX0005C                2.  0.00              -2 3
J. Marti line, mode  2   parameters begin.        |-2X0010BX0005A                2.  0.00              -2 3
J. Marti line, mode  3   parameters begin.        |-3X0010CX0005B                2.  0.00              -2 3
TR(1,1 )...  0.671-0.707-0.324                    |  0.67102882 -0.70710678 -0.32400803
TI(1,1 )...  0.000 0.000 0.003                    |  0.00000000  0.00000000  0.00341127
TR(2,1 )...  0.315 0.000 0.889                    |  0.31480489  0.00000000  0.88876566
TI(2,1 )... -0.018 0.000 0.010                    | -0.01839933  0.00000000  0.01048452
TR(3,1 )...  0.671 0.707-0.324                    |  0.67102882  0.70710678 -0.32400803
TI(3,1 )...  0.000 0.000 0.003                    |  0.00000000  0.00000000  0.00341127
Dynamic $INCLUDE uses fixed RAM cache to delay.   |$INSERT, C:\SimulacaoATP\3\OTIM2.pch
J. Marti line, mode  1   parameters begin.        |-1X0004AX0006C                2.  0.00              -2 3
J. Marti line, mode  2   parameters begin.        |-2X0004BX0006A                2.  0.00              -2 3
J. Marti line, mode  3   parameters begin.        |-3X0004CX0006B                2.  0.00              -2 3
TR(1,1 )...  0.671-0.707-0.324                    |  0.67102882 -0.70710678 -0.32400803
TI(1,1 )...  0.000 0.000 0.003                    |  0.00000000  0.00000000  0.00341127
TR(2,1 )...  0.315 0.000 0.889                    |  0.31480489  0.00000000  0.88876566
TI(2,1 )... -0.018 0.000 0.010                    | -0.01839933  0.00000000  0.01048452
TR(3,1 )...  0.671 0.707-0.324                    |  0.67102882  0.70710678 -0.32400803
TI(3,1 )...  0.000 0.000 0.003                    |  0.00000000  0.00000000  0.00341127
Dynamic $INCLUDE uses fixed RAM cache to delay.   |$INSERT, C:\SimulacaoATP\3\OTIM3.pch
J. Marti line, mode  1   parameters begin.        |-1X0005AX0004C                2.  0.00              -2 3
J. Marti line, mode  2   parameters begin.        |-2X0005BX0004A                2.  0.00              -2 3
J. Marti line, mode  3   parameters begin.        |-3X0005CX0004B                2.  0.00              -2 3
TR(1,1 )...  0.671-0.707-0.324                    |  0.67102882 -0.70710678 -0.32400803
TI(1,1 )...  0.000 0.000 0.003                    |  0.00000000  0.00000000  0.00341127
TR(2,1 )...  0.315 0.000 0.889                    |  0.31480489  0.00000000  0.88876566
TI(2,1 )... -0.018 0.000 0.010                    | -0.01839933  0.00000000  0.01048452
TR(3,1 )...  0.671 0.707-0.324                    |  0.67102882  0.70710678 -0.32400803
TI(3,1 )...  0.000 0.000 0.003                    |  0.00000000  0.00000000  0.00341127
Dynamic $INCLUDE uses fixed RAM cache to delay.   |$INSERT, C:\SimulacaoATP\3\EXT4.pch
J. Marti line, mode  1   parameters begin.        |-1X0006AX0003A                2.  0.00              -2 3
J. Marti line, mode  2   parameters begin.        |-2X0006BX0003B                2.  0.00              -2 3
J. Marti line, mode  3   parameters begin.        |-3X0006CX0003C                2.  0.00              -2 3
TR(1,1 )...  0.671-0.707-0.324                    |  0.67102882 -0.70710678 -0.32400803
TI(1,1 )...  0.000 0.000 0.003                    |  0.00000000  0.00000000  0.00341127
TR(2,1 )...  0.315 0.000 0.889                    |  0.31480489  0.00000000  0.88876566
TI(2,1 )... -0.018 0.000 0.010                    | -0.01839933  0.00000000  0.01048452
TR(3,1 )...  0.671 0.707-0.324                    |  0.67102882  0.70710678 -0.32400803
TI(3,1 )...  0.000 0.000 0.003                    |  0.00000000  0.00000000  0.00341127
Blank card ending branches.  IBR, NTOT = 26  27   |BLANK BRANCH
Switch.   5.50E-02  1.00E-03  0.00E+00  3.33E+03  |  X0001BX0002B      .055      .001               3333.STATISTICS               0
Switch.   5.50E-02  1.00E-03  0.00E+00  3.33E+03  |  X0001AX0002A      .055      .001               3333.STATISTICS               0
Switch.   5.50E-02  1.00E-03  0.00E+00  3.33E+03  |  X0001CX0002C      .055      .001               3333.STATISTICS               0
Switch.   1.00E-02  1.00E-03  0.00E+00  0.00E+00  |  X0003CXX0009       .01      .001                    STATISTICS               1
Switch.   7.00E-01  1.00E-03  0.00E+00  0.00E+00  |  X0001BX0002B        .7      .001                    STATISTICS               0
Switch.   7.00E-01  1.00E-03  0.00E+00  0.00E+00  |  X0001AX0002A        .7      .001                    STATISTICS               0
Switch.   7.00E-01  1.00E-03  0.00E+00  0.00E+00  |  X0001CX0002C        .7      .001                    STATISTICS               0
Switch.   0.00E+00  6.98E-01  0.00E+00  0.00E+00  |  X0002AX0010A                .698                                             0
Switch.   0.00E+00  6.98E-01  0.00E+00  0.00E+00  |  X0002BX0010B                .698                                             0
Switch.   0.00E+00  6.98E-01  0.00E+00  0.00E+00  |  X0002CX0010C                .698                                             0
Switch.   7.10E-01  0.00E+00  0.00E+00  0.00E+00  |  X0002AX0010A       .71                                                       0
Switch.   7.10E-01  0.00E+00  0.00E+00  0.00E+00  |  X0002BX0010B       .71                                                       0
Switch.   7.10E-01  0.00E+00  0.00E+00  0.00E+00  |  X0002CX0010C       .71                                                       0
Blank card ending switches.   KSWTCH = 13.        |BLANK SWITCH
Source.   4.29E+05  6.00E+01  0.00E+00 -1.00E+00  |14X0007A  428660.705       60.                                     -1.      100.
Source.   4.29E+05  6.00E+01 -1.20E+02 -1.00E+00  |14X0007B  428660.705       60.     -120.                           -1.      100.
Source.   4.29E+05  6.00E+01 -2.40E+02 -1.00E+00  |14X0007C  428660.705       60.     -240.                           -1.      100.
Blank card ends electric sources.  KCONST = 3     |BLANK SOURCE

     Total network loss  P-loss  by summing injections =   2.466573470080E+08

Card of names for time-step loop output.          |  X0003AX0003BX0003C
Output voltage differences for pairs of A6 names  |-5X0003BX0003CX0003AX0003BX0003CX0003A
Blank card ending requests for output variables.  |BLANK OUTPUT

Column headings for the  7   EMTP output variables follow.  These are divided among the 5 possible classes as follows ....
  First  6     output variables are electric-network voltage differences (upper voltage minus lower voltage);
  Next   1     output variables are branch currents (flowing from the upper node to the lower node);
   Step      Time      X0003A     X0003B     X0003C     X0003B     X0003A     X0003C     X0003C
                                                        X0003C     X0003B     X0003A     XX0009
 ***      Phasor I(0) =  1.7285681E+01                     Switch  "X0001B"  to  "X0002B"  closed in the steady-state.
 ***      Phasor I(0) =  3.8486511E+02                     Switch  "X0001A"  to  "X0002A"  closed in the steady-state.
 ***      Phasor I(0) = -3.9879193E+02                     Switch  "X0001C"  to  "X0002C"  closed in the steady-state.
 ***                    Switch  "X0002A"  to  "X0010A"  closed  after  0.00000000E+00  sec.
 ***                    Switch  "X0002B"  to  "X0010B"  closed  after  0.00000000E+00  sec.
 ***                    Switch  "X0002C"  to  "X0010C"  closed  after  0.00000000E+00  sec.
      0       0.0  124633.164 -240673.06 112984.787 -353657.85 365306.227 -11648.378        0.0
    500     .5E-3  160289.524 -234319.88 72191.0632 -306510.95 394609.406  -88098.46        0.0
   1000     .1E-2  190986.519 -220025.34 28336.2854 -248361.62 411011.857 -162650.23        0.0
   1500     .0015  214066.985 -198187.62 -16419.562 -181768.06 412254.608 -230486.55        0.0
   2000      .002  551568.863 -134799.23 -480469.32  345670.09 686368.094 -.103204E7        0.0
   2500     .0025  566618.736 12244.5654 -608166.53 620411.095 554374.171 -.117479E7        0.0
   3000      .003  514052.419 145817.167 -696266.24 842083.404 368235.253 -.121032E7        0.0
   3500     .0035  425268.701 260501.907 -725541.22 986043.123 164766.794 -.115081E7        0.0
   4000      .004  317123.614 382416.881 -690529.17 .1072946E7 -65293.267 -.100765E7        0.0
   4500     .0045  194466.082 493194.762 -639197.19 .1132392E7 -298728.68 -833663.27        0.0
   5000      .005  46182.3892 573473.399 -564376.54  .113785E7 -527291.01 -610558.93        0.0
   5500     .0055  -215161.07 614289.543 -355440.65 969730.196 -829450.61 -140279.59        0.0
   6000      .006  -437431.57 590867.607 -124279.51 715147.118  -.10283E7 313152.057        0.0
   6500     .0065  -567573.31 535561.779 76117.8232 459443.956 -.110314E7  643691.13        0.0
   7000      .007  -637772.35 457506.791 237018.787 220488.004 -.109528E7 874791.141        0.0
   7500     .0075  -666912.36 364539.793 343455.537 21084.2556 -.103145E7 .1010368E7        0.0
   8000      .008  -660232.12 252912.634 412858.814 -159946.18 -913144.76 .1073091E7        0.0
   8500     .0085  -622390.89 127362.594 459695.618 -332333.02 -749753.48 .1082087E7        0.0
   9000      .009  -523553.62 6109.32059 453516.087 -447406.77 -529662.94 977069.711        0.0
   9500     .0095  -378879.06  -92733.37 397438.435 -490171.81 -286145.69 776317.496        0.0
  10000       .01  -244892.75 -164082.67 333782.476 -497865.15 -80810.072 578675.222        0.0
 ***                                                             Close switch  "X0003C"  to  "XX0009"  after  1.00010000E-02  sec.
  10500     .0105  -218062.09 -296205.68 28775.4146 -324981.09 78143.5914   246837.5 959.180485
  11000      .011  -122228.69 -330389.12 26477.2674 -356866.39 208160.433 148705.953 882.575581
  11500     .0115   -51351.56  -362578.4 26400.5506 -388978.95 311226.836  77752.111 880.018352
  12000      .012  -4706.9416 -392853.46 29295.2612 -422148.72 388146.518 34002.2028 976.508707
  12500     .0125  27205.5631 -403809.27 32018.5087 -435827.78 431014.834 4812.94562 1067.28362
  13000      .013  42564.8193 -415295.02 35302.5896 -450597.61 457859.837 -7262.2297 1176.75299
  13500     .0135  10238.2108 -438654.01 39632.3404 -478286.35 448892.217 29394.1296 1321.07801
  14000      .014   -43228.97 -531653.99 53044.7983 -584698.79 488425.019 96273.7682 1768.15994
  14500     .0145  41141.4733 -504911.12 63754.9671 -568666.08 546052.589 22613.4938 2125.16557
  15000      .015  136096.256 -458009.16 66822.8236 -524831.98 594105.412 -69273.432 2227.42745
  15500     .0155  222069.068 -412901.02 61187.3698 -474088.39 634970.087  -160881.7 2039.57899
  16000      .016  314542.588 -359787.62 51631.0306 -411418.65 674330.208 -262911.56 1721.03435
  16500     .0165  414931.486 -287334.96 40340.9479  -327675.9 702266.441 -374590.54 1344.69826
  17000      .017  517567.181 -190356.87 27193.8201 -217550.69 707924.049 -490373.36 906.460669
  17500     .0175  605080.338 -70240.825  13247.693 -83488.518 675321.163 -591832.64 441.589765
  18000      .018  652731.554 66594.5166 3717.51616 62877.0005 586137.038 -649014.04 123.917205
  18500     .0185  664439.721 209868.118 -808.13004 210676.248 454571.604 -665247.85 -26.937668
  19000      .019  634878.859 340629.289 -6948.6814  347577.97 294249.571 -641827.54 -231.62271
  19500     .0195  566784.412 456387.876  -15065.86 471453.735 110396.536 -581850.27 -502.19532
  20000       .02  461036.335 550507.465 -24184.093 574691.558 -89471.131 -485220.43 -806.13643
  20500     .0205  325884.532 617346.957 -33295.552 650642.509 -291462.43 -359180.08 -1109.8517
  21000      .021  172490.766 652641.806 -41949.452 694591.258 -480151.04 -214440.22 -1398.3151
  21500     .0215  9869.30956 648209.741 -49658.369  697868.11 -638340.43 -59527.679  -1655.279
  22000      .022  -152678.88 602094.455  -54665.88 656760.334 -754773.34 98013.0019  -1822.196
  22500     .0225  -295153.97 531617.275 -56323.421 587940.697 -826771.24 238830.547 -1877.4474
  23000      .023  -406654.97 449633.356 -55054.493 504687.849 -856288.32 351600.474 -1835.1498
  23500     .0235  -486660.46 358476.511 -51929.177 410405.687 -845136.97 434731.279 -1730.9726
  24000      .024  -537012.46  260048.79 -47523.505 307572.295 -797061.25 489488.957 -1584.1168
  24500     .0245  -559699.44 158838.661  -41962.65 200801.312 -718538.11 517736.794  -1398.755
  25000      .025  -557437.83 61335.6622 -35428.765 96764.4269  -618773.5  522009.07 -1180.9588
  25500     .0255  -535826.21 -28039.524 -28124.839 85.3141929 -507786.68 507701.368 -937.49462
  26000      .026  -501398.23 -108588.37  -19643.69 -88944.681 -392809.86  481754.54 -654.78967
  26500     .0265  -458627.95 -181519.22 -9522.7574 -171996.46 -277108.73 449105.195 -317.42525
  27000      .027  -410849.87 -248887.53 1838.52431 -250726.06 -161962.34 412688.396 61.2841438
  27500     .0275  -359536.47 -311359.35 13574.3077 -324933.65 -48177.122 373110.776 452.476922
  28000      .028  -304787.99 -368705.32 24888.7612 -393594.08 63917.3303 329676.754 829.625373
  28500     .0285  -245691.06 -420288.03 35185.8277 -455473.86 174596.974 280876.887 1172.86092
  29000      .029  -180419.75 -465051.36 43964.6738 -509016.04 284631.617  224384.42 1465.48913
  29500     .0295  -107951.06 -501748.02 50803.5959 -552551.62  393796.96 158754.656  1693.4532
  30000       .03  -28537.748 -528291.34 55550.0727 -583841.42 499753.595 84087.8205 1851.66909
  30500     .0305  57626.3873 -540572.21 58280.8705 -598853.08 598198.596 654.483264 1942.69568
  31000      .031  149967.307 -533609.99 59122.9253 -592732.91 683577.293 -90844.382 1970.76418
  31500     .0315  245983.452 -503871.14 58127.7785 -561998.92 749854.595 -187855.67 1937.59262
  32000      .032  341021.688 -450254.19 55291.4725 -505545.67 791275.883 -285730.22 1843.04908
  32500     .0325   429194.96 -373694.11 50645.6375 -424339.75 802889.073 -378549.32 1688.18792
  33000      .033  504554.541  -276611.2 44274.7918 -320885.99 781165.738 -460279.75 1475.82639
  33500     .0335  561713.666 -163011.22 36317.9878 -199329.21 724724.885 -525395.68 1210.59959
  34000      .034  596155.669 -38621.371 27047.7171 -65669.088  634777.04 -569107.95  901.59057
  34500     .0345   604641.64 89527.1561 16889.1365 72638.0196 515114.484  -587752.5 562.971217
  35000      .035  585645.329  213879.85 6310.87473 207568.976 371765.479 -579334.45 210.362491
  35500     .0355  539701.113 327334.238 -4276.1001 331610.338 212366.875 -543977.21 -142.53667
  36000      .036  469379.558 423972.352 -14529.382 438501.734 45407.2056 -483908.94 -484.31274
  36500     .0365  378909.796 499410.151 -24145.512 523555.663 -120500.35 -403055.31  -804.8504
  37000      .037  273629.123 550946.371 -32851.123 583797.493 -277317.25 -306480.25 -1095.0374
  37500     .0375   159310.94 577519.414 -40411.171 617930.586 -418208.47 -199722.11  -1347.039
  38000      .038  41636.4664  579584.67 -46614.807 626199.477  -537948.2 -88251.274 -1553.8269
  38500     .0385  -74039.124 559025.158 -51253.356 610278.514 -633064.28 22785.7685 -1708.4452
  39000      .039   -182874.7 518906.102 -54123.465 573029.567  -701780.8 128751.237 -1804.1155
  39500     .0395  -280848.39 462928.429 -55058.395 517986.824 -743776.82 225789.997 -1835.2798
  40000       .04  -365021.62 394796.328  -53963.93 448760.258 -759817.95 311057.688 -1798.7977
  40500     .0405  -433549.54  317796.38 -50837.235 368633.616 -751345.92 382712.308 -1694.5745
  41000      .041  -485445.34 234660.834  -45772.13 280432.964 -720106.18 439673.211 -1525.7377
  41500     .0415  -520311.52 147582.704 -38956.013 186538.718 -667894.22 481355.507 -1298.5338
  42000      .042  -538168.78 58282.7971 -30652.071 88934.8685 -596451.58 507516.712 -1021.7357
  % % % % % %   Suspended simulation;  plot data space exhausted;  SPY SPACE is required.   LIMBUF =  340000.
  % % % % % %   Suspended simulation;  plot data space exhausted;  SPY SPACE is required.   LIMBUF =  340000.
  +++  Time-sharing disabled.   Send  user-keyed interrupt to silence alarm.
